[93m[10:52:35.173] LOCAL → REMOTE       72[0m
[93m[10:52:35.184] LOCAL → REMOTE       18 02 00 6C 9C D8 72 DF 00 8C 23 02 E2 6E C0 04 88 E0 0C 18 8C 0C 1C 82 EC 1C 70 8C 3C 8E 82 DF 00 EC 38 02 92 DF C7 92 DC E4 8C 1C 70 0C 18 0C F2 6E 6E E4 02 C4 3B F2 6E C4 92 DC E4 0C 1B 8E 0C 62 E0 24 89 72 18 02 72 18 02 70 F2 6E E0 C3 DC 80 0C 1C E0 82 C7 C0 6C 1C 80 0C 1C 80 0C 1C 80 0C 62 C0 04 6E E2 E3 6E C0 C4 0E 92 6C 1F 8C 0C 62 C0 C4 BE 7E F2 6E EE 03 C4 C1 8C 8E[0m
[93m[10:52:35.189] LOCAL → REMOTE       00 6C 60 1B FC 90 12 DC 23 82 6E C0 04 8E 72 18 02 0E 02 6E 72 8E 92 DF 3B 02 C4 C0 0C 3F 1C 72 C7 3B 88 02 70 F2 6E E0 83 DC 00 0C 1C E0 72 C7 1C E2 DC 1B 02 0C 1C 80 0C 1C 70 0C 18 70 92[0m
[93m[10:52:35.205] LOCAL → REMOTE       DC 3C 02 C4 DF 8C 8E D8 0C 62 C0 C4 BE 7E F2 6E EE 03 C4 F0 0C 18 72 18 02 90 12 DC 23 82 6E C0 04 8E 3B 18 02 0E 02 6E 72 8E 92 DF 3B 02 C4 C0 0C 3F E2 8C 1C 72 18 02 70 F2 6E E0 83 DC 00 0C 1C E0 72 C7 1C E2 DC 1B 02 8C 1C 1C 72 DC 38 0C 18 70 92 DC 3C 02 C4 DC EC 8E DC 0C 62 C0 C4 3E 7E F2 6E EE 03 C4 C8 0C 18 72 18 02 90 12 DC 23 82 6E C0 04 0E 72 18 02 0E 02 6E 72 8E 92[0m
[93m[10:52:35.210] LOCAL → REMOTE       DF 3B 02 C4 C0 0C 3F 8C 8C 1C 72 18 02 0E 72 DF DB 92 6E C0 04 0E E0 62 C7 C4 6C 60 1B 24 60 1B C4 8E 7C 82 DC 00 8C 38 7E F2 6E E4 02 C4 DC 92 DC C4 72 DF 23 F2 6E DF 02 C4 E4 0C 18 82 8C 62[0m
[93m[10:52:35.216] LOCAL → REMOTE       8E 20 6C 8E 18 E2 C7 1C 02 EC 8E DF 6C 1B 72 18 02 8E 1B D8 89 6C C0 E4 B6 80 92 DC 1B 82 DC 00 8C 1F 00 0C 1F 80 6C 6C 18 62 92 60 1B E4 B6 80 DB C4 01 46 8E FB 6E C4 92 DC 00 8C 1F 00 0C 90[0m
[93m[10:52:35.237] LOCAL → REMOTE       23 DB 6C 0E 23 60 6C 80 DB C4 01 46 0E 82 6E E0 3B DF B0 02 C4 C7 49 76 EC 92 DC 00 8C 8C 00 6C 6C E0 03 DF F6 0C 18 8E 8C 1C 72 1B 70 62 82 DF 20 6C 8E 83 8C 1C 6E 1B 60 6E 6C 8E C3 8C 1C 6E 1B 60 62 6C 60 1B C4 39 92 92 6E E0 02 C4 D8 F2 6E C0 C4 BE 92 E2 6E C0 24 9E C7 92 DC C4 12 C7 00 0C 20 00 6C 1C 80 0C 1C 80 6C 60 1B 24 60 1B FC[0m
[93m[10:52:35.288] LOCAL → REMOTE       9C[0m
[93m[10:52:35.304] LOCAL → REMOTE       1B 1C 72 18 02 72 DB 6E 0E 23 E0[0m
[93m[10:52:35.330] LOCAL → REMOTE       70 E8[0m
[93m[10:52:35.350] LOCAL → REMOTE       FF 8C E2 DC 00 EC 38 02 82 6E C0 E4 3E 12 72 DC D8 F2 6E E3 62 0C 18 82 0C 1C 82 6C 1F 72 18 02 1C 62 DF 1B 12 DF 00 0C 9E C4 12 DC 07 92 DC 00 6C 9C 3C 12 DC 04 82 6E E2 03 C4 C0 6C 60 1B C4 BE 1C 72 92 38 1B 47 C6 6C 12 90[0m
[93m[10:52:38.180] LOCAL → REMOTE       00 10 00 00 00 2B 56 00 01 00 00[0m
[93m[10:52:38.201] LOCAL → REMOTE       00 81 57 69 4E 45 54 00 00 00 00 00 00 00 00 00 00 00 00 00 00 00 00 00 00 00 00 00 00 00 00 00 00 00 52 4F 47 45 52 20 42 2D 43 4F 4E 4E 45 43 54 2D 45 42 38 36 39 31 44 35 00 00 00 00 00 00 00 00 84 F3 EB 86 91 D5 00 00 00 00 00 00 00 00 06 00 5A D3 0A 03 00 64 00 22 85 77[0m
[93m[10:52:38.408] LOCAL → REMOTE       00 10 00 00 00 2B 56 00 01 00 00 00 81 57 69 4E 45 54 00 00 00 00 00 00 00 00 00 00 00 00 00 00 00 00 00 00 00 00 00 00 00 00 00 00 00 52 4F 47 45 52 20 42 2D 43 4F 4E 4E 45 43 54 2D 45 42 38 36 39 31 44 35 00 00 00 00 00 00 00 00 84 F3 EB 86 91 D5 00 00 00 00 00 00 00 00 06 00 5A D3 0A 03 00 64 00 22 85 77[0m
[93m[10:52:38.601] LOCAL → REMOTE       0A 03 00 64 00 22 85 77[0m
[96m[10:52:38.751] REMOTE → LOCAL       0A 03 44 00 25 80 EB 00 34 07 47 00 00 00 00 00 00 00 00 00 04 00 19 00 1A 00 00 00 20 00 63 00 0C 6E 00 00 00 00 00 00 00 00 53 00 00 00 00 00 00 00 00 08 16 02 03 0D 87 00 FE 04 FE 16 12 00 00 00 05 40 01 04 4B 81 55[0m
[93m[10:52:38.824] LOCAL → REMOTE       0A 03 15 7C 00 06 01 67[0m
[93m[10:52:39.017] LOCAL → REMOTE       0A 03 15 7C 00 06 01 67[0m
[96m[10:52:39.026] REMOTE → LOCAL       0A 03 44 00 25 80 EB 00 34 07 47 00 00 00 00 00 00 00 00 00 04 00 19 00 1A 00 00 00 20 00 63 00 0C 6E 00 00 00 00 00 00 00 00 53 00 00 00 00 00 00 00 00 08 16 02 03 0D 87 00 FE 04 FE 16 12 00 00 00 05 40 01 04 4B 81 55[0m
[93m[10:52:39.095] LOCAL → REMOTE       0A 03 15 7C 00 06 01 67[0m
[93m[10:52:39.288] LOCAL → REMOTE       0A 03 15 7C 00 06 01 67[0m
[96m[10:52:39.302] REMOTE → LOCAL       0A 03 0C 00 00 00 00 00 00 00 00 08 05 00 00 CA 16[0m
[93m[10:52:39.365] LOCAL → REMOTE       0A 03 00 C8 00 1A 44 84[0m
[93m[10:52:39.558] LOCAL → REMOTE       0A 03 00 C8 00 1A 44 84[0m
[96m[10:52:39.587] REMOTE → LOCAL       0A 03 0C 00 00 00 00 00 00 00 00 08 05 00 00 CA 16[0m
[93m[10:52:39.656] LOCAL → REMOTE       0A 03 00 E2 00 1A 65 4C[0m
[93m[10:52:39.846] LOCAL → REMOTE       0A 03 00 E2 00 1A 65 4C[0m
[96m[10:52:39.850] REMOTE → LOCAL       0A 03 34 00 00 02 04 32 41 30 00 00 00 00 00 00 00 00 00 00 00 00 00 00 00 00 00 00 00 00 00 00 FF 00 01 00 00 00 00 00 FF 00 05 00 05 00 06 00 FF 00 00 00 00 00 00 03 26[0m
[93m[10:52:39.913] LOCAL → REMOTE       0A 03 00 FC 00 1A 05 4A[0m
[93m[10:52:40.116] LOCAL → REMOTE       0A 03 00 FC 00 1A 05 4A[0m
[96m[10:52:40.125] REMOTE → LOCAL       0A 03 34 A0 01 22 04 32 41 31 00 00 00 00 00 01 05 00 01 00 06 00 00 00 00 00 00 00 00 00 01 00 FF 00 01 00 00 00 00 00 FF 00 05 00 05 00 06 00 FF 00 00 00 00 00 00 9B 7E[0m
[93m[10:52:40.199] LOCAL → REMOTE       0A 03 01 16 00 1A 25 42[0m
[93m[10:52:40.387] LOCAL → REMOTE       0A 03 01 16 00 1A 25 42[0m
[96m[10:52:40.402] REMOTE → LOCAL       0A 03 34 20 02 A2 04 32 41 32 00 00 00 00 00 02 00 00 00 00 0F 00 63 00 63 00 00 00 00 00 00 00 FF 00 01 00 00 00 00 00 FF 00 05 00 05 00 06 00 FF 00 00 00 00 00 00 67 F3[0m
[93m[10:52:40.470] LOCAL → REMOTE       0A 03 01 30 00 1A C4 89[0m
[93m[10:52:40.663] LOCAL → REMOTE       0A 03 01 30 00 1A C4 89[0m
[96m[10:52:40.677] REMOTE → LOCAL       0A 03 34 20 03 A2 04 32 41 33 00 00 00 00 00 03 00 00 00 00 01 00 00 00 00 00 00 00 00 00 00 00 FF 00 01 00 00 00 00 00 FF 00 05 00 05 00 06 00 FF 00 00 00 00 00 00 84 F4[0m
[93m[10:52:40.740] LOCAL → REMOTE       0A 03 01 4A 00 1A E5 50[0m
[93m[10:52:40.948] LOCAL → REMOTE       0A 03 01 4A 00 1A E5 50[0m
[96m[10:52:40.951] REMOTE → LOCAL       0A 03 34 20 04 A2 04 32 41 34 00 00 00 00 00 04 00 00 00 00 04 00 00 00 00 00 00 00 00 00 00 00 FF 00 01 00 00 00 00 00 FF 00 05 00 05 00 06 00 FF 00 00 00 00 00 00 BB C3[0m
[93m[10:52:41.015] LOCAL → REMOTE       0A 03 01 64 00 1A 85 59[0m
[96m[10:52:41.201] REMOTE → LOCAL       0A 03 34 20 05 A2 04 32 41 35 00 00 00 00 00 05 00 00 00 00 0A 00 63 00 63 00 00 00 00 00 00 00 FF 00 01 00 00 00 00 00 FF 00 05 00 05 00 06 00 FF 00 00 00 00 00 00 58 C4[0m
[93m[10:52:41.222] LOCAL → REMOTE       0A 03 01 64 00 1A 85 59[0m
[93m[10:52:41.268] LOCAL → REMOTE       0A 03 01 64 00 1A 85 59[0m
[93m[10:52:41.463] LOCAL → REMOTE       0A 03 01 64 00 1A 85 59[0m
[96m[10:52:41.476] REMOTE → LOCAL       0A 03 34 20 06 A2 04 32 41 36 00 00 00 00 00 06 00 00 00 00 01 00 00 00 00 00 00 00 00 00 00 00 FF 00 01 00 00 00 00 00 FF 00 05 00 05 00 06 00 FF 00 00 00 00 00 00 E1 4C[0m
[93m[10:52:41.540] LOCAL → REMOTE       0A 03 01 7E 00 1A A4 9E[0m
[93m[10:52:41.751] LOCAL → REMOTE       0A 03 01 7E 00 1A A4 9E[0m
[96m[10:52:41.751] REMOTE → LOCAL       0A 03 34 20 06 A2 04 32 41 36 00 00 00 00 00 06 00 00 00 00 01 00 00 00 00 00 00 00 00 00 00 00 FF 00 01 00 00 00 00 00 FF 00 05 00 05 00 06 00 FF 00 00 00 00 00 00 E1 4C[0m
[93m[10:52:41.813] LOCAL → REMOTE       0A 03 01 98 00 1A 45 69[0m
[93m[10:52:42.021] LOCAL → REMOTE       0A 03 01 98 00 1A 45 69[0m
[96m[10:52:42.025] REMOTE → LOCAL       0A 03 34 20 07 A2 04 32 41 37 00 00 00 00 00 07 00 00 00 00 01 00 00 00 00 00 00 00 00 00 00 00 FF 00 01 00 00 00 00 00 FF 00 05 00 05 00 06 00 FF 00 00 00 00 00 00 01 AB[0m
[93m[10:52:42.083] LOCAL → REMOTE       0A 03 01 B2 00 1A 64 A1[0m
[93m[10:52:42.296] LOCAL → REMOTE       0A 03 01 B2 00 1A 64 A1[0m
[96m[10:52:42.300] REMOTE → LOCAL       0A 03 34 20 08 A2 04 32 41 38 00 00 00 00 00 08 00 00 00 00 03 00 04 00 04 00 00 00 00 00 00 00 FF 00 01 00 00 00 00 00 FF 00 05 00 05 00 06 00 FF 00 00 00 00 00 00 06 E0[0m
[93m[10:52:42.373] LOCAL → REMOTE       0A 03 01 CC 00 1A 04 B9[0m
[93m[10:52:42.566] LOCAL → REMOTE       0A 03 01 CC 00 1A 04 B9[0m
[96m[10:52:42.576] REMOTE → LOCAL       0A 03 34 00 09 02 04 32 31 30 00 00 00 00 00 0A 00 00 00 00 00 00 00 00 00 00 00 00 00 00 00 00 FF 00 01 00 00 00 00 00 FF 00 05 00 05 00 06 00 FF 00 00 00 00 00 00 76 6D[0m
[93m[10:52:42.644] LOCAL → REMOTE       0A 03 01 E6 00 1A 25 71[0m
[93m[10:52:42.836] LOCAL → REMOTE       0A 03 01 E6 00 1A 25 71[0m
[96m[10:52:42.855] REMOTE → LOCAL       0A 03 34 20 0A 42 04 32 31 31 00 00 00 00 00 0B 04 00 01 00 05 00 00 00 00 00 00 00 00 12 04 00 FF 00 01 00 00 00 00 00 FF 00 05 00 05 00 06 00 FF 00 00 00 00 00 00 4D 9E[0m
[93m[10:52:42.918] LOCAL → REMOTE       0A 03 02 00 00 1A C4 C2[0m
[96m[10:52:43.125] REMOTE → LOCAL       0A 03 34 20 0B 42 04 32 31 32 00 00 00 00 00 0C 04 00 01 00 05 00 00 00 00 00 00 00 00 01 04 00 01 00 00 00 03 00 03 00 01 00 05 00 05 00 06 00 FF 00 00 00 00 00 00 E6 81[0m
[93m[10:52:43.126] LOCAL → REMOTE       0A 03 02 00 00 1A C4 C2[0m
[93m[10:52:43.189] LOCAL → REMOTE       0A 03 02 1A 00 1A E5 05[0m
[93m[10:52:43.397] LOCAL → REMOTE       0A 03 02 1A 00 1A E5 05[0m
[96m[10:52:43.400] REMOTE → LOCAL       0A 03 34 20 0C 42 04 32 31 33 00 00 00 00 00 0D 05 00 05 00 28 00 00 00 00 00 00 00 00 01 05 00 FF 00 00 00 03 00 03 00 FF 00 05 00 05 00 06 00 FF 00 00 00 00 00 00 09 37[0m
[93m[10:52:43.459] LOCAL → REMOTE       0A 03 02 34 00 1A 85 0C[0m
[93m[10:52:43.669] LOCAL → REMOTE       0A 03 02 34 00 1A 85 0C[0m
[96m[10:52:43.676] REMOTE → LOCAL       0A 03 34 20 0D 42 04 32 31 34 00 00 00 00 00 0E 05 00 05 00 28 00 00 00 00 00 00 00 00 01 05 00 FF 00 00 00 03 00 03 00 FF 00 05 00 05 00 06 00 FF 00 00 00 00 00 00 D3 36[0m
[93m[10:52:43.747] LOCAL → REMOTE       0A 03 02 4E 00 1A A4 D5[0m
[93m[10:52:43.938] LOCAL → REMOTE       0A 03 02 4E 00 1A A4 D5[0m
[96m[10:52:43.951] REMOTE → LOCAL       0A 03 34 20 0E A2 04 32 31 35 00 00 00 00 00 0F 32 00 0A 00 63 00 00 00 00 00 00 00 00 00 32 00 FF 00 00 00 03 00 03 00 FF 00 05 00 05 00 06 00 FF 00 00 00 00 00 00 2B 6B[0m
[93m[10:52:44.021] LOCAL → REMOTE       0A 03 02 68 00 1A 45 1E[0m
[93m[10:52:44.214] LOCAL → REMOTE       0A 03 02 68 00 1A 45 1E[0m
[96m[10:52:44.225] REMOTE → LOCAL       0A 03 34 20 0F 42 04 32 31 36 00 00 00 00 00 10 0A 00 00 00 5A 00 5C 00 63 00 00 00 00 03 0A 00 FF 00 00 00 03 00 03 00 FF 00 05 00 05 00 06 00 FF 00 00 00 00 00 00 23 37[0m
[93m[10:52:44.292] LOCAL → REMOTE       0A 03 02 82 00 1A 64 EA[0m
[93m[10:52:44.485] LOCAL → REMOTE       0A 03 02 82 00 1A 64[0m
[96m[10:52:44.500] REMOTE → LOCAL       0A 03 34 20 10 A2 04 32 32 30 00 00 00 00 00 14 00 00 00 00 05 00 00 00 00 00 00 00 00 02 00 00 FF 00 00 00 03 00 03 00 FF 00 05 00 05 00 06 00 FF 00 00 00 00 00 00 21 CF[0m
[93m[10:52:44.501] LOCAL → REMOTE       EA[0m
[93m[10:52:44.563] LOCAL → REMOTE       0A 03 02 9C 00 1A 04 EC[0m
[93m[10:52:44.770] LOCAL → REMOTE       0A 03 02 9C 00 1A 04 EC[0m
[96m[10:52:44.776] REMOTE → LOCAL       0A 03 34 20 11 42 04 32 32 31 00 00 00 00 00 15 5D 00 00 00 5A 00 5C 00 63 00 00 00 00 00 1E 00 FF 00 00 00 03 00 03 00 FF 00 05 00 05 00 06 00 FF 00 00 00 00 00 00 4F F1[0m
[93m[10:52:44.838] LOCAL → REMOTE       0A 03 02 B6 00 1A 25 24[0m
[93m[10:52:45.046] LOCAL → REMOTE       0A 03 02 B6 00 1A 25 24[0m
[93m[10:52:45.238] LOCAL → REMOTE       0A 03 02 B6 00 1A 25 24[0m
[96m[10:52:45.334] REMOTE → LOCAL       0A 03 34 00 13 02 04 32 32 33 00 00 00 00 00 17 00 00 00 00 00 00 00 00 00 00 00 00 00 00 00 00 FF 00 00 00 03 00 03 00 FF 00 05 00 05 00 06 00 FF 00 00 00 00 00 00 E0 62[0m
[93m[10:52:45.393] LOCAL → REMOTE       0A 03 02 D0 00 1A C5 3B[0m
[93m[10:52:45.602] LOCAL → REMOTE       0A 03 02 D0 00 1A C5 3B[0m
[96m[10:52:45.658] REMOTE → LOCAL       0A 03 34 00 13 02 04 32 32 33 00 00 00 00 00 17 00 00 00 00 00 00 00 00 00 00 00 00 00 00 00 00 FF 00 00 00 03 00 03 00 FF 00 05 00 05 00 06 00 FF 00 00 00 00 00 00 E0 62[0m
[93m[10:52:45.731] LOCAL → REMOTE       0A 03 02 EA 00 1A E5 36[0m
[96m[10:52:45.875] REMOTE → LOCAL       0A 03 34 00 14 02 04 32 32 34 00 00 00 00 00 18 00 00 00 00 01 00 00 00 00 00 00 00 00 00 00 00 FF 00 00 00 03 00 03 00 FF 00 05 00 05 00 06 00 FF 00 00 00 00 00 00 0B 60[0m
[93m[10:52:45.942] LOCAL → REMOTE       0A 03 03 04 00 1A 84 FF[0m
[93m[10:52:46.146] LOCAL → REMOTE       0A 03 03 04 00 1A 84 FF[0m
[96m[10:52:46.157] REMOTE → LOCAL       0A 03 34 00 15 02 04 32 32 35 00 00 00 00 00 19 00 00 00 00 00 00 00 00 00 00 00 00 00 00 00 00 FF 00 00 00 03 00 03 00 FF 00 05 00 05 00 06 00 FF 00 00 00 00 00 00 C7 47[0m
[93m[10:52:46.229] LOCAL → REMOTE       0A 03 03 1E 00 1A A5 38[0m
[93m[10:52:46.421] LOCAL → REMOTE       0A 03 03 1E 00 1A A5 38[0m
[96m[10:52:46.425] REMOTE → LOCAL       0A 03 34 00 16 02 04 32 32 36 00 00 00 00 00 1A 00 00 00 00 00 00 00 00 00 00 00 00 00 00 00 00 FF 00 00 00 03 00 03 00 FF 00 05 00 05 00 06 00 FF 00 00 00 00 00 00 E4 2F[0m
[93m[10:52:46.483] LOCAL → REMOTE       0A 03 03[0m
[93m[10:52:46.498] LOCAL → REMOTE       38 00 1A 44 F3[0m
[93m[10:52:46.691] LOCAL → REMOTE       0A 03 03 38 00 1A 44 F3[0m
[96m[10:52:46.700] REMOTE → LOCAL       0A 03 34 20 17 82 04 32 32 37 00 00 00 00 00 1B 03 00 00 00 3C 00 00 00 00 00 00 00 00 00 03 00 FF 00 00 00 03 00 03 00 FF 00 05 00 05 00 06 00 FF 00 00 00 00 00 00 60 F6[0m
[93m[10:52:46.769] LOCAL → REMOTE       0A 03 03 52 00 1A 64 EF[0m
[96m[10:52:46.950] REMOTE → LOCAL       0A 03 34 00 18 02 04 32 32 38 00 00 00 00 00 1C 00 00 00 00 00 00 00 00 00 00 00 00 00 00 00 00 FF 00 00 00 03 00 03 00 FF 00 05 00 05 00 06 00 FF 00 00 00 00 00 00 C9 B5[0m
[93m[10:52:46.961] LOCAL → REMOTE       0A 03 03 6C 00 1A 05 23[0m
[93m[10:52:47.013] LOCAL → REMOTE       0A 03 03 6C 00 1A 05 23[0m
[96m[10:52:47.200] REMOTE → LOCAL       0A 03 34 00 19 02 04 32 32 39 00 00 00 00 00 1D 00 00 00 00 00 00 00 00 00 00 00 00 00 80 00 00 FF 00 00 00 03 00 03 00 FF 00 05 00 05 00 06 00 FF 00 00 00 00 00 00 83 2E[0m
[93m[10:52:47.266] LOCAL → REMOTE       0A 03 03 86 00 1A 24 D7[0m
[96m[10:52:47.450] REMOTE → LOCAL       0A 03 34 20 1A 62 04 32 33 30 00 00 00 00 00 1E 09 00 01 00 09 00 00 00 00 00 00 00 00 01 05 00 FF 00 00 00 03 00 03 00 FF 00 05 00 05 00 06 00 FF 00 00 00 00 00 00 73 A2[0m
[93m[10:52:47.459] LOCAL → REMOTE       0A 03 03 A0 00 1A C5[0m
[93m[10:52:47.475] LOCAL → REMOTE       1C[0m
[93m[10:52:47.522] LOCAL → REMOTE       0A 03 03 A0 00 1A C5 1C[0m
[96m[10:52:47.700] REMOTE → LOCAL       0A 03 34 20 1B 62 04 32 33 31 00 00 00 00 00 1F 14 00 01 00 14 00 00 00 00 00 00 00 00 01 0F 00 FF 00 00 00 03 00 03 00 FF 00 05 00 05 00 06 00 FF 00 00 00 00 00 00 49 82[0m
[93m[10:52:47.761] LOCAL → REMOTE       0A 03 03 BA 00 1A E4 DB[0m
[96m[10:52:47.950] REMOTE → LOCAL       0A 03 34 00 1C 02 04 32 33 32 00 00 00 00 00 20 00 00 00 00 00 00 00 00 00 00 00 00 00 00 00 00 FF 00 00 00 03 00 03 00 FF 00 05 00 05 00 06 00 FF 00 00 00 00 00 00 E7 43[0m
[93m[10:52:48.020] LOCAL → REMOTE       0A 03 03 D4 00 1A 85 06[0m
[96m[10:52:48.213] REMOTE → LOCAL       0A 03 34 20 1D 42 04 32 33 33 00 00 00 00 00 21 04 00 01 00 05 00 00 00 00 00 00 00 00 12 04 00 FF 00 00 00 03 00 03 00 FF 00 05 00 05 00 06 00 FF 00 00 00 00 00 00 67 EB[0m
[93m[10:52:48.213] LOCAL → REMOTE       0A 03 03 D4 00 1A 85 06[0m
[93m[10:52:48.275] LOCAL → REMOTE       0A 03 03 EE 00 1A A5 0B[0m
[93m[10:52:48.482] LOCAL → REMOTE       0A 03 03 EE 00 1A A5 0B[0m
[96m[10:52:48.516] REMOTE → LOCAL       0A 03 34 20 1E 42 04 32 33 34 00 00 00 00 00 22 04 00 01 00 05 00 00 00 00 00 00 00 00 12 04 00 01 00 00 00 03 00 03 00 01 00 05 00 05 00 06 00 FF 00 00 00 00 00 00 BF 9D[0m
[93m[10:52:48.581] LOCAL → REMOTE       0A 03 04 08 00 1A 45 88[0m
[96m[10:52:48.725] REMOTE → LOCAL       0A 03 34 00 1F 02 04 32 33 35 00 00 00 00 00 23 00 00 00 00 00 00 00 00 00 00 00 00 00 00 00 00 FF 00 00 00 03 00 03 00 FF 00 05 00 05 00 06 00 FF 00 00 00 00 00 00 86 19[0m
[93m[10:52:48.788] LOCAL → REMOTE       0A 03 04 22 00 1A 64 40[0m
[96m[10:52:48.975] REMOTE → LOCAL       0A 03 34 20 20 62 04 32 33 36 00 00 00 00 00 24 00 00 00 00 02 00 00 00 00 00 00 00 00 00 00 00 FF 00 00 00 03 00 03 00 FF 00 05 00 05 00 06 00 FF 00 00 00 00 00 00 E1 23[0m
[93m[10:52:48.995] LOCAL → REMOTE       0A 03 04 3C 00 1A 04 46[0m
[93m[10:52:49.042] LOCAL → REMOTE       0A 03 04 3C 00 1A 04 46[0m
[96m[10:52:49.225] REMOTE → LOCAL       0A 03 34 20 21 62 04 32 33 37 00 00 00 00 00 25 00 00 00 00 05 00 00 00 00 00 00 00 00 00 00 00 FF 00 00 00 03 00 03 00 FF 00 05 00 05 00 06 00 FF 00 00 00 00 00 00 C3 04[0m
[93m[10:52:49.296] LOCAL → REMOTE       0A 03 04 56 00 1A 24 5A[0m
[96m[10:52:49.475] REMOTE → LOCAL       0A 03 34 00 22 02 04 32 33 38 00 00 00 00 00 26 00 00 00 00 00 00 00 00 00 00 00 00 00 00 00 00 FF 00 00 00 03 00 03 00 FF 00 05 00 05 00 06 00 FF 00 00 00 00 00 00 EA 0D[0m
[93m[10:52:49.537] LOCAL → REMOTE       0A 03 04 70 00 1A C5 91[0m
[96m[10:52:49.725] REMOTE → LOCAL       0A 03 34 20 23 42 04 32 34 30 00 00 00 00 00 28 05 00 01 00 05 00 00 00 00 00 00 00 00 11 05 00 FF 00 00 00 03 00 03 00 FF 00 05 00 05 00 06 00 FF 00 00 00 00 00 00 0A D9[0m
[93m[10:52:49.792] LOCAL → REMOTE       0A 03 04 8A 00 1A E5 A0[0m
[96m[10:52:49.975] REMOTE → LOCAL       0A 03 34 20 24 42 04 32 34 31 00 00 00 00 00 29 05 00 01 00 05 00 00 00 00 00 00 00 00 11 05 00 01 00 00 00 03 00 03 00 01 00 05 00 05 00 06 00 FF 00 00 00 00 00 00 9E FE[0m
[93m[10:52:50.035] LOCAL → REMOTE       0A 03 04 A4 00 1A 85 A9[0m
[93m[10:52:50.243] LOCAL → REMOTE       0A 03 04 A4 00 1A 85 A9[0m
[96m[10:52:50.251] REMOTE → LOCAL       0A 03 34 20 25 42 04 32 34 32 00 00 00 00 00 2A 03 00 01 00 08 00 00 00 00 00 00 00 00 00 03 00 FF 00 00 00 03 00 03 00 FF 00 05 00 05 00 06 00 FF 00 00 00 00 00 00 E8 9F[0m
[93m[10:52:50.320] LOCAL → REMOTE       0A 03 04 BE 00 1A A4 6E[0m
[96m[10:52:50.328] REMOTE → LOCAL       0A 03 34 00 26 02 04 32 34 33 00 00 00 00 00 2B 05 00 01 00 63 00 00 00 00 00 00 00 00 00 05 00 FF 00 00 00 03 00 03 00 FF 00 05 00 05 00 06 00 FF 00 00 00 00 00 00 77 D9[0m
[96m[10:52:50.398] REMOTE → LOCAL       0A 03 34 20 27 82 04 32 34 39 00 00 00 00 00 31 01 00 00 00 03 00 00 00 00 00 00 00 00 00 01 00 FF 00 00 00 03 00 03 00 FF 00 05 00 05 00 06 00 FF 00 00 00 00 00 00 54 F7[0m
[93m[10:52:50.404] LOCAL → REMOTE       0A 03 04 D8 00 1A 44 71[0m
[93m[10:52:50.466] LOCAL → REMOTE       0A 03 04 F2 00 1A 65 B9[0m
[96m[10:52:50.530] REMOTE → LOCAL       0A 03 34 20 28 82 04 32 35 30 00 00 00 00 00 32 00 00 00 00 04 00 00 00 00 00 00 00 00 80 00 00 FF 00 00 00 03 00 03 00 FF 00 05 00 05 00 06 00 FF 00 00 00 00 00 00 12 3E[0m
[93m[10:52:50.595] LOCAL → REMOTE       0A 03 05 0C 00 1A 05 B5[0m
[96m[10:52:50.799] REMOTE → LOCAL       0A 03 34 20 29 82 04 32 35 31 00 00 00 00 00 33 02 00 00 00 04 00 00 00 00 00 00 00 00 80 02 00 FF 00 00 00 03 00 03 00 FF 00 05 00 05 00 06 00 FF 00 00 00 00 00 00 4A 73[0m
[93m[10:52:50.802] LOCAL → REMOTE       0A 03 05 0C 00 1A 05 B5[0m
[93m[10:52:50.863] LOCAL → REMOTE       0A 03 05 26 00 1A 24 7D[0m
[93m[10:52:51.072] LOCAL → REMOTE       0A 03 05 26 00 1A 24 7D[0m
[96m[10:52:51.075] REMOTE → LOCAL       0A 03 34 20 2A 82 04 32 35 32 00 00 00 00 00 34 00 00 00 00 02 00 00 00 00 00 00 00 00 80 01 00 FF 00 00 00 03 00 03 00 FF 00 05 00 05 00 06 00 FF 00 00 00 00 00 00 DA 92[0m
[93m[10:52:51.140] LOCAL → REMOTE       0A 03 05 40 00 1A C4 62[0m
[93m[10:52:51.343] LOCAL → REMOTE       0A 03 05 40 00 1A C4 62[0m
[96m[10:52:51.350] REMOTE → LOCAL       0A 03 34 20 2B 82 04 32 35 33 00 00 00 00 00 35 00 00 00 00 04 00 00 00 00 00 00 00 00 80 00 00 FF 00 00 00 03 00 03 00 FF 00 05 00 05 00 06 00 FF 00 00 00 00 00 00 80 8C[0m
[93m[10:52:51.410] LOCAL → REMOTE       0A 03 05 5A 00 1A E5 A5[0m
[93m[10:52:51.618] LOCAL → REMOTE       0A 03 05 5A 00 1A E5 A5[0m
[96m[10:52:51.633] REMOTE → LOCAL       0A 03 34 20 2C 82 04 32 35 34 00 00 00 00 00 36 02 00 00 00 04 00 00 00 00 00 00 00 00 80 00 00 FF 00 00 00 03 00 03 00 FF 00 05 00 05 00 06 00 FF 00 00 00 00 00 00 84 79[0m
[93m[10:52:51.696] LOCAL → REMOTE       0A 03 05 74 00 1A 85 AC[0m
[96m[10:52:51.899] REMOTE → LOCAL       0A 03 34 20 2D 82 04 32 35 35 00 00 00 00 00 37 00 00 00 00 02 00 00 00 00 00 00 00 00 80 01 00 FF 00 00 00 03 00 03 00 FF 00 05 00 05 00 06 00 FF 00 00 00 00 00 00 CD 7F[0m
[93m[10:52:51.904] LOCAL → REMOTE       0A 03 05 74 00 1A 85 AC[0m
[93m[10:52:51.971] LOCAL → REMOTE       0A 03 05 8E 00 1A A5 9D[0m
[93m[10:52:52.163] LOCAL → REMOTE       0A 03 05 8E 00 1A A5 9D[0m
[96m[10:52:52.175] REMOTE → LOCAL       0A 03 34 20 2E A2 04 32 35 36 00 00 00 00 00 38 00 00 00 00 02 00 00 00 00 00 00 00 00 80 00 00 08 00 01 00 03 00 04 00 FF 00 05 00 05 00 06 00 FF 00 00 00 00 00 00 01 CA[0m
[93m[10:52:52.240] LOCAL → REMOTE       0A 03 05 A8 00 1A 44 56[0m
[93m[10:52:52.448] LOCAL → REMOTE       0A 03 05 A8 00 1A 44 56[0m
[96m[10:52:52.449] REMOTE → LOCAL       0A 03 34 00 2F 02 04 32 36 30 00 00 00 00 00 3C 00 00 00 00 00 00 00 00 00 00 00 00 00 00 00 00 FF 00 01 00 03 00 04 00 FF 00 05 00 05 00 06 00 FF 00 00 00 00 00 00 AF 92[0m
[93m[10:52:52.515] LOCAL → REMOTE       0A 03 05 C2 00 1A 64 4A[0m
[93m[10:52:52.723] LOCAL → REMOTE       0A 03 05 C2 00 1A 64 4A[0m
[96m[10:52:52.724] REMOTE → LOCAL       0A 03 34 00 30 02 04 32 36 31 00 00 00 00 00 3D 00 00 00 00 00 00 00 00 00 00 00 00 00 00 00 00 FF 00 01 00 03 00 04 00 FF 00 05 00 05 00 06 00 FF 00 00 00 00 00 00 B3 EA[0m
[93m[10:52:52.785] LOCAL → REMOTE       0A 03 05 DC 00 1A 04 4C[0m
[93m[10:52:52.992] LOCAL → REMOTE       0A 03 05 DC 00 1A 04 4C[0m
[96m[10:52:53.002] REMOTE → LOCAL       0A 03 34 00 31 02 04 32 36 32 00 00 00 00 00 3E 00 00 00 00 00 00 00 00 00 00 00 00 00 00 00 00 FF 00 01 00 03 00 04 00 FF 00 05 00 05 00 06 00 FF 00 00 00 00 00 00 2B D9[0m
[93m[10:52:53.075] LOCAL → REMOTE       0A 03 05 F6 00 1A 25 84[0m
[93m[10:52:53.267] LOCAL → REMOTE       0A 03 05 F6 00 1A 25 84[0m
[96m[10:52:53.362] REMOTE → LOCAL       0A 03 34 00 32 02 04 32 36 33 00 00 00 00 00 3F 00 00 00 00 00 00 00 00 00 00 00 00 00 00 00 00 FF 00 01 00 03 00 04 00 FF 00 05 00 05 00 06 00 FF 00 00 00 00 00 00 70 65[0m
[93m[10:52:53.422] LOCAL → REMOTE       0A 03 06 10 00 1A C4 37[0m
[96m[10:52:53.549] REMOTE → LOCAL       0A 03 34 00 33 02 04 32 36 34 00 00 00 00 00 40 00 00 00 00 00 00 00 00 00 00 00 00 00 00 00 00 FF 00 01 00 03 00 04 00 FF 00 05 00 05 00 06 00 FF 00 00 00 00 00 00 38 DF[0m
[93m[10:52:53.614] LOCAL → REMOTE       0A 03 06 2A 00 1A E4 3A[0m
[93m[10:52:53.806] LOCAL → REMOTE       0A 03 06 2A 00 1A E4 3A[0m
[96m[10:52:53.830] REMOTE → LOCAL       0A 03 34 20 34 42 04 32 36 35 00 00 00 00 00 41 05 00 01 00 05 00 00 00 00 00 00 00 00 00 05 00 FF 00 01 00 03 00 04 00 FF 00 05 00 05 00 06 00 FF 00 00 00 00 00 00 4E 8E[0m
[93m[10:52:53.905] LOCAL → REMOTE       0A 03 06 44 00 1A 85 E7[0m
[93m[10:52:54.096] LOCAL → REMOTE       0A 03 06 44 00 1A 85 E7[0m
[96m[10:52:54.100] REMOTE → LOCAL       0A 03 34 00 35 02 04 32 37 30 00 00 00 00 00 46 01 00 01 00 01 00 00 00 00 00 00 00 00 00 01 00 FF 00 01 00 03 00 04 00 FF 00 05 00 05 00 06 00 FF 00 00 00 00 00 00 5E BF[0m
[93m[10:52:54.158] LOCAL → REMOTE       0A 03 06 5E 00 1A A4 20[0m
[93m[10:52:54.366] LOCAL → REMOTE       0A 03 06 5E 00 1A A4 20[0m
[96m[10:52:54.375] REMOTE → LOCAL       0A 03 34 A0 36 22 04 32 37 31 00 00 00 00 00 47 00 00 00 00 01 00 00 00 00 00 00 00 00 01 01 00 FF 00 01 00 03 00 04 00 FF 00 05 00 05 00 06 00 FF 00 00 00 00 00 00 19 8A[0m
[93m[10:52:54.449] LOCAL → REMOTE       0A 03 06 78 00 1A 45 EB[0m
[93m[10:52:54.641] LOCAL → REMOTE       0A 03 06 78 00 1A 45 EB[0m
[96m[10:52:54.650] REMOTE → LOCAL       0A 03 34 00 37 02 04 32 37 32 00 00 00 00 00 48 00 00 00 00 00 00 00 00 00 00 00 00 00 00 00 00 FF 00 01 00 03 00 04 00 FF 00 05 00 05 00 06 00 FF 00 00 00 00 00 00 21 1A[0m
[93m[10:52:54.718] LOCAL → REMOTE       0A 03 06 92 00 1A 64 1F[0m
[93m[10:52:54.911] LOCAL → REMOTE       0A 03 06 92 00 1A 64 1F[0m
[96m[10:52:54.968] REMOTE → LOCAL       0A 03 34 20 38 82 04 32 37 33 00 00 00 00 00 49 00 00 00 00 04 00 0C 00 0C 00 0E 00 0E 80 00 00 FF 00 01 00 03 00 04 00 FF 00 05 00 05 00 06 00 FF 00 00 00 00 00 00 BE D3[0m
[93m[10:52:55.041] LOCAL → REMOTE       0A 03 06 AC 00 1A 05 D3[0m
[96m[10:52:55.199] REMOTE → LOCAL       0A 03 34 20 39 82 04 32 37 34 00 00 00 00 00 4A 00 00 00 00 04 00 0C 00 0C 00 0E 00 0E 80 00 00 FF 00 01 00 03 00 04 00 FF 00 05 00 05 00 06 00 FF 00 00 00 00 00 00 64 D2[0m
[93m[10:52:55.264] LOCAL → REMOTE       0A 03 06 C6 00 1A 25 CF[0m
[93m[10:52:55.472] LOCAL → REMOTE       0A 03 06 C6 00 1A 25 CF[0m
[96m[10:52:55.475] REMOTE → LOCAL       0A 03 34 00 3A 02 04 32 37 35 00 00 00 00 00 4B 00 00 00 00 00 00 00 00 00 00 00 00 00 00 00 00 FF 00 01 00 03 00 04 00 FF 00 05 00 05 00 06 00 FF 00 00 00 00 00 00 62 82[0m
[93m[10:52:55.535] LOCAL → REMOTE       0A 03 06 E0 00 1A C4 04[0m
[93m[10:52:55.743] LOCAL → REMOTE       0A 03 06 E0 00 1A C4 04[0m
[96m[10:52:55.750] REMOTE → LOCAL       0A 03 34 20 3B A2 04 32 37 36 00 00 00 00 00 4C 00 00 00 00 0A 00 00 00 00 00 00 00 00 00 00 00 FF 00 01 00 03 00 04 00 FF 00 05 00 05 00 06 00 FF 00 00 00 00 00 00 F1 10[0m
[93m[10:52:55.826] LOCAL → REMOTE       0A 03 06 FA 00 1A E5 C3[0m
[93m[10:52:56.017] LOCAL → REMOTE       0A 03 06 FA 00 1A E5 C3[0m
[96m[10:52:56.027] REMOTE → LOCAL       0A 03 34 20 3C A2 04 32 37 37 00 00 00 00 00 4D 01 00 00 00 0A 00 00 00 00 00 00 00 00 00 01 00 FF 00 01 00 03 00 04 00 FF 00 05 00 05 00 06 00 FF 00 00 00 00 00 00 80 4E[0m
[93m[10:52:56.094] LOCAL → REMOTE       0A 03 07 14 00 1A 84 0A[0m
[93m[10:52:56.287] LOCAL → REMOTE       0A 03 07 14 00 1A 84 0A[0m
[96m[10:52:56.299] REMOTE → LOCAL       0A 03 34 20 3D A2 04 32 37 38 00 00 00 00 00 4E 02 00 00 00 02 00 00 00 00 00 00 00 00 80 00 00 FF 00 01 00 03 00 04 00 FF 00 05 00 05 00 06 00 FF 00 00 00 00 00 00 52 DB[0m
[93m[10:52:56.365] LOCAL → REMOTE       0A 03 07 2E 00 1A A4 07[0m
[93m[10:52:56.558] LOCAL → REMOTE       0A 03 07 2E 00 1A A4 07[0m
[96m[10:52:56.576] REMOTE → LOCAL       0A 03 34 20 3E A2 04 32 37 39 00 00 00 00 00 4F 3C 00 00 00 5A 00 5C 00 63 00 00 00 00 80 3C 00 10 00 00 00 00 00 00 00 FF 00 05 00 05 00 06 00 FF 00 00 00 00 00 00 53 F6[0m
[93m[10:52:56.640] LOCAL → REMOTE       0A 03 07 48 00 1A 44 18[0m
[93m[10:52:56.848] LOCAL → REMOTE       0A 03 07 48 00 1A 44 18[0m
[96m[10:52:56.852] REMOTE → LOCAL       0A 03 34 20 3F A2 04 32 38 30 00 00 00 00 00 50 00 00 00 00 01 00 00 00 00 00 00 00 00 00 00 00 FF 00 00 00 00 00 00 00 FF 00 05 00 05 00 06 00 FF 00 00 00 00 00 00 9F 7A[0m
[93m[10:52:56.909] LOCAL → REMOTE       0A 03 07 62 00 1A 65[0m
[93m[10:52:56.925] LOCAL → REMOTE       D0[0m
[93m[10:52:57.117] LOCAL → REMOTE       0A 03 07 62 00 1A 65 D0[0m
[96m[10:52:57.126] REMOTE → LOCAL       0A 03 34 20 40 A2 04 32 38 31 00 00 00 00 00 51 00 00 00 00 02 00 00 00 00 00 00 00 00 00 00 00 FF 00 00 00 00 00 00 00 FF 00 05 00 05 00 06 00 FF 00 00 00 00 00 00 33 8E[0m
[93m[10:52:57.200] LOCAL → REMOTE       0A 03 07 7C 00 1A 05 D6[0m
[93m[10:52:57.392] LOCAL → REMOTE       0A 03 07 7C 00 1A 05 D6[0m
[96m[10:52:57.404] REMOTE → LOCAL       0A 03 34 20 41 A2 04 32 38 32 00 00 00 00 00 52 03 00 02 00 5A 00 5C 00 63 00 00 00 00 00 03 00 40 00 01 00 00 00 00 00 FF 00 05 00 05 00 06 00 FF 00 00 00 00 00 00 03 D0[0m
[93m[10:52:57.470] LOCAL → REMOTE       0A 03 07 96 00 1A 24 22[0m
[93m[10:52:57.663] LOCAL → REMOTE       0A 03 07 96 00 1A[0m
[96m[10:52:57.678] REMOTE → LOCAL       0A 03 34 00 42 02 04 32 38 33 00 00 00 00 00 53 00 00 00 00 00 00 00 00 00 00 00 00 00 00 00 00 FF 00 01 00 00 00 00 00 FF 00 05 00 05 00 06 00 FF 00 00 00 00 00 00 33 6A[0m
[93m[10:52:57.679] LOCAL → REMOTE       24 22[0m
[93m[10:52:57.741] LOCAL → REMOTE       0A 03 07 B0 00 1A C5 E9[0m
[93m[10:52:57.949] LOCAL → REMOTE       0A 03 07 B0 00 1A C5 E9[0m
[96m[10:52:57.950] REMOTE → LOCAL       0A 03 34 00 43 02 04 32 38 34 00 00 00 00 00 54 00 00 00 00 00 00 00 00 00 00 00 00 00 00 00 00 FF 00 01 00 00 00 00 00 FF 00 05 00 05 00 06 00 FF 00 00 00 00 00 00 58 B1[0m
[93m[10:52:58.017] LOCAL → REMOTE       0A 03 07 CA 00 1A E4 30[0m
[93m[10:52:58.224] LOCAL → REMOTE       0A 03 07 CA 00 1A E4 30[0m
[93m[10:52:58.416] LOCAL → REMOTE       0A 03 07 CA 00 1A E4 30[0m
[96m[10:52:58.502] REMOTE → LOCAL       0A 03 34 20 45 A2 04 32 38 36 00 00 00 00 00 56 00 00 00 00 04 00 00 00 00 00 00 00 00 01 00 00 44 00 01 00 00 00 00 00 FF 00 05 00 05 00 06 00 FF 00 00 00 00 00 00 24 FC[0m
[93m[10:52:58.577] LOCAL → REMOTE       0A 03 07 E4 00 1A 84 39[0m
[93m[10:52:58.769] LOCAL → REMOTE       0A 03 07 E4 00 1A 84 39[0m
[96m[10:52:58.777] REMOTE → LOCAL       0A 03 34 20 45 A2 04 32 38 36 00 00 00 00 00 56 00 00 00 00 04 00 00 00 00 00 00 00 00 01 00 00 44 00 01 00 00 00 00 00 FF 00 05 00 05 00 06 00 FF 00 00 00 00 00 00 24 FC[0m
[93m[10:52:58.847] LOCAL → REMOTE       0A 03 1A 2C 00 06 02 62[0m
[93m[10:52:59.039] LOCAL → REMOTE       0A 03 1A 2C 00 06 02 62[0m
[96m[10:52:59.054] REMOTE → LOCAL       0A 03 34 20 46 A2 04 32 38 37 00 00 00 00 00 57 00 00 00 00 03 00 00 00 00 00 00 00 00 01 00 00 FF 00 01 00 00 00 00 00 FF 00 05 00 05 00 06 00 FF 00 00 00 00 00 00 B1 B0[0m
[93m[10:52:59.116] LOCAL → REMOTE       0A 03 1B 20 00 04 42 5C[0m
[93m[10:52:59.325] LOCAL → REMOTE       0A 03 1B 20 00 04 42 5C[0m
[96m[10:52:59.331] REMOTE → LOCAL       0A 03 0C 16 4B 0C 00 26 26 02 9F 00 00 00 00 F1 54[0m
[93m[10:52:59.393] LOCAL → REMOTE       0A 03 1B 24 00 04 03 9D[0m
[93m[10:52:59.596] LOCAL → REMOTE       0A 03 1B 24 00 04 03 9D[0m
[96m[10:52:59.605] REMOTE → LOCAL       0A 03 08 10 00 C7 42 06 D7 00 00 69 F7[0m
[93m[10:52:59.663] LOCAL → REMOTE       0A 03 1B 28 00 04 C3 9E[0m
[93m[10:52:59.872] LOCAL → REMOTE       0A 03 1B 28 00 04 C3 9E[0m
[96m[10:52:59.879] REMOTE → LOCAL       0A 03 08 14 00 C5 44 09 9D 00 00 C3 24[0m
[93m[10:52:59.934] LOCAL → REMOTE       0A 03 1B 2C 00 04 82 5F[0m
[93m[10:53:00.143] LOCAL → REMOTE       0A 03 1B 2C 00 04 82 5F[0m
[96m[10:53:00.150] REMOTE → LOCAL       0A 03 08 10 00 C7 44 09 9E 00 00 33 35[0m
[93m[10:53:00.205] LOCAL → REMOTE       0A 03 1B 30 00 04 43 99[0m
[93m[10:53:00.414] LOCAL → REMOTE       0A 03 1B 30 00 04 43 99[0m
[96m[10:53:00.426] REMOTE → LOCAL       0A 03 08 18 00 C6 44 04 ED 00 00 C0 35[0m
[93m[10:53:00.492] LOCAL → REMOTE       0A 03 1B 34 00 04 02 58[0m
[93m[10:53:00.684] LOCAL → REMOTE       0A 03 1B 34 00 04 02 58[0m
[96m[10:53:00.699] REMOTE → LOCAL       0A 03 08 1C 00 C5 44 04 EE 00 00 31 F5[0m
[93m[10:53:00.767] LOCAL → REMOTE       0A 03 1B 38 00 04 C2 5B[0m
[93m[10:53:00.957] LOCAL → REMOTE       0A 03 1B 38 00 04 C2 5B[0m
[96m[10:53:00.977] REMOTE → LOCAL       0A 03 08 14 00 C5 44 04 F2 00 00 F1 95[0m
[93m[10:53:01.040] LOCAL → REMOTE       0A 03 1B 3C 00 04 83 9A[0m
[93m[10:53:01.246] LOCAL → REMOTE       0A 03 1B 3C 00 04 83 9A[0m
[96m[10:53:01.250] REMOTE → LOCAL       0A 03 08 10 00 C7 44 04 F3 00 00 A0 44[0m
[93m[10:53:01.309] LOCAL → REMOTE       0A 03 1B 40 00 04 42 42[0m
[93m[10:53:01.517] LOCAL → REMOTE       0A 03 1B 40 00 04 42 42[0m
[96m[10:53:01.525] REMOTE → LOCAL       0A 03 08 14 00 C5 44 06 F6 00 00 B1 EC[0m
[93m[10:53:01.579] LOCAL → REMOTE       0A 03 1B 44 00 04 03 83[0m
[93m[10:53:01.787] LOCAL → REMOTE       0A 03 1B 44 00 04 03 83[0m
[96m[10:53:01.802] REMOTE → LOCAL       0A 03 08 10 00 C7 44 06 F6 00 00 B1 FD[0m
[93m[10:53:01.870] LOCAL → REMOTE       0A 03 1B 48 00 04 C3 80[0m
[93m[10:53:02.063] LOCAL → REMOTE       0A 03 1B 48 00 04 C3 80[0m
[96m[10:53:02.078] REMOTE → LOCAL       0A 03 08 1C 00 C5 44 06 F6 00 00 B0 4A[0m
[93m[10:53:02.141] LOCAL → REMOTE       0A 03 1B 4C 00 04 82 41[0m
[93m[10:53:02.333] LOCAL → REMOTE       0A 03 1B 4C 00 04 82 41[0m
[96m[10:53:02.350] REMOTE → LOCAL       0A 03 08 18 00 C6 44 06 F6 00 00 B1 8A[0m
[93m[10:53:02.411] LOCAL → REMOTE       0A 03 1B 50 00 04 43 87[0m
[93m[10:53:02.603] LOCAL → REMOTE       0A 03 1B[0m
[93m[10:53:02.619] LOCAL → REMOTE       50 00 04 43 87[0m
[96m[10:53:02.626] REMOTE → LOCAL       0A 03 08 10 00 C7 44 06 F7 00 00 E0 3D[0m
[93m[10:53:02.687] LOCAL → REMOTE       0A 03 1B 54 00 04 02 46[0m
[96m[10:53:02.879] REMOTE → LOCAL       0A 03 08 18 00 C6 44 01 8B 00 00 20 E6[0m
[93m[10:53:02.895] LOCAL → REMOTE       0A 03 1B 54 00 04 02 46[0m
[93m[10:53:02.942] LOCAL → REMOTE       0A 03 1B 58 00 04 C2 45[0m
[96m[10:53:03.127] REMOTE → LOCAL       0A 03 08 10 00 C7 44 01 8B 00 00 20 91[0m
[93m[10:53:03.196] LOCAL → REMOTE       0A 03 1B 5C 00 04 83 84[0m
[96m[10:53:03.374] REMOTE → LOCAL       0A 03 08 14 00 C5 44 01 8C 00 00 91 41[0m
[93m[10:53:03.436] LOCAL → REMOTE       0A 03 1B 60 00 04 43 88[0m
[96m[10:53:03.633] REMOTE → LOCAL       0A 03 08 10 00 C7 44 01 8C 00 00 91 50[0m
[93m[10:53:03.643] LOCAL → REMOTE       0A 03 1B 60 00 04 43 88[0m
[93m[10:53:03.690] LOCAL → REMOTE       0A 03 1B 64 00 04 02 49[0m
[96m[10:53:03.874] REMOTE → LOCAL       0A 03 08 18 00 C6 44 01 8C 00 00 91 27[0m
[93m[10:53:03.933] LOCAL → REMOTE       0A 03 1B 68 00 04 C2 4A[0m
[96m[10:53:04.124] REMOTE → LOCAL       0A 03 08 10 00 C7 44 01 8C 00 00 91 50[0m
[93m[10:53:04.188] LOCAL → REMOTE       0A 03 1A 40 00 04 43 BE[0m
[93m[10:53:04.380] LOCAL → REMOTE       0A 03 1A 40 00 04 43 BE[0m
[96m[10:53:04.380] REMOTE → LOCAL       0A 03 08 18 00 C6 44 01 8D 00 00 C0 E7[0m
[93m[10:53:04.442] LOCAL → REMOTE       0A 03 1A 44 00 04 02 7F[0m
[96m[10:53:04.624] REMOTE → LOCAL       0A 03 08 14 00 C5 44 01 8D 00 00 C0 81[0m
[93m[10:53:04.686] LOCAL → REMOTE       0A 03 1A 48 00 04 C2 7C[0m
[96m[10:53:04.874] REMOTE → LOCAL       0A 03 08 10 00 C7 44 01 8D 00 00 C0 90[0m
[93m[10:53:04.941] LOCAL → REMOTE       0A 03 1A 4C 00 04 83 BD[0m
[96m[10:53:05.124] REMOTE → LOCAL       0A 03 08 18 00 C6 44 0C 07 00 00 E3 A1[0m
[93m[10:53:05.179] LOCAL → REMOTE       0A 03 1A 50 00 04 42 7B[0m
[96m[10:53:05.374] REMOTE → LOCAL       0A 03 08 14 00 C5 44 0C 07 00 00 E3 C7[0m
[93m[10:53:05.434] LOCAL → REMOTE       0A 03 1A 54 00 04 03 BA[0m
[93m[10:53:05.642] LOCAL → REMOTE       0A 03 1A 54 00 04 03 BA[0m
[96m[10:53:05.649] REMOTE → LOCAL       0A 03 08 10 00 C7 44 0C 07 00 00 E3 D6[0m
[93m[10:53:05.710] LOCAL → REMOTE       0A 03 1A 58 00 04 C3 B9[0m
[93m[10:53:05.918] LOCAL → REMOTE       0A 03 1A 58 00 04 C3 B9[0m
[96m[10:53:05.924] REMOTE → LOCAL       0A 03 08 14 00 C5 44 0C 16 00 00 B3 C2[0m
[93m[10:53:05.980] LOCAL → REMOTE       0A 03 1A 5C 00 04 82 78[0m
[93m[10:53:06.187] LOCAL → REMOTE       0A 03 1A 5C 00 04 82 78[0m
[96m[10:53:06.199] REMOTE → LOCAL       0A 03 08 10 00 C7 44 0C 17 00 00 E2 13[0m
[93m[10:53:06.265] LOCAL → REMOTE       0A 03 1A 60 00 04 42 74[0m
[93m[10:53:06.457] LOCAL → REMOTE       0A 03 1A 60 00 04 42 74[0m
[96m[10:53:06.476] REMOTE → LOCAL       0A 03 08 18 00 C6 44 0C 17 00 00 E2 64[0m
[93m[10:53:06.540] LOCAL → REMOTE       0A 03 1A 64 00 04 03 B5[0m
[93m[10:53:06.730] LOCAL → REMOTE       0A 03 1A 64 00 04 03 B5[0m
[96m[10:53:06.749] REMOTE → LOCAL       0A 03 08 10 00 C7 44 0C 17 00 00 E2 13[0m
[93m[10:53:06.813] LOCAL → REMOTE       0A 03 1A 68 00 04 C3 B6[0m
[93m[10:53:07.001] LOCAL → REMOTE       0A[0m
[93m[10:53:07.017] LOCAL → REMOTE       03 1A 68 00 04 C3 B6[0m
[96m[10:53:07.025] REMOTE → LOCAL       0A 03 08 10 04 43 04 01 D6 00 00 EB 08[0m
[93m[10:53:07.085] LOCAL → REMOTE       0A 03 1A 6C 00 04 82 77[0m
[93m[10:53:07.289] LOCAL → REMOTE       0A 03 1A 6C 00 04 82 77[0m
[96m[10:53:07.301] REMOTE → LOCAL       0A 03 08 20 00 C8 05 01 E8 00 00 EF 6B[0m
[93m[10:53:07.371] LOCAL → REMOTE       0A 03 1A 70 00 04 43 B1[0m
[93m[10:53:07.564] LOCAL → REMOTE       0A 03 1A 70 00 04 43 B1[0m
[96m[10:53:07.574] REMOTE → LOCAL       0A 03 08 20 02 42 01 02 4D 00 00 32 66[0m
[93m[10:53:07.642] LOCAL → REMOTE       0A 03 1A 74 00 04 02 70[0m
[93m[10:53:07.837] LOCAL → REMOTE       0A 03 1A 74 00 04 02 70[0m
[96m[10:53:07.848] REMOTE → LOCAL       0A 03 08 10 00 C7 02 02 5E 00 00 B8 E2[0m
[93m[10:53:07.914] LOCAL → REMOTE       0A 03 1A 78 00 04 C2 73[0m
[93m[10:53:08.105] LOCAL → REMOTE       0A 03 1A 78 00 04 C2 73[0m
[96m[10:53:08.124] REMOTE → LOCAL       0A 03 08 10 10 45 04 02 73 00 00 AF 08[0m
[93m[10:53:08.188] LOCAL → REMOTE       0A 03 1A 7C 00 04 83 B2[0m
[93m[10:53:08.380] LOCAL → REMOTE       0A[0m
[93m[10:53:08.396] LOCAL → REMOTE       03 1A 7C 00 04 83 B2[0m
[96m[10:53:08.402] REMOTE → LOCAL       0A 03 08 10 10 45 04 02 76 00 00 BF 09[0m
[93m[10:53:08.458] LOCAL → REMOTE       0A 03 1A 80 00 04 43 82[0m
[93m[10:53:08.667] LOCAL → REMOTE       0A 03 1A 80 00 04 43 82[0m
[96m[10:53:08.678] REMOTE → LOCAL       0A 03 08 10 04 43 04 02 79 00 00 DB 6D[0m
[93m[10:53:08.744] LOCAL → REMOTE       0A 03 1A 84 00 04 02 43[0m
[93m[10:53:08.937] LOCAL → REMOTE       0A 03 1A 84 00 04 02 43[0m
[96m[10:53:08.955] REMOTE → LOCAL       0A 03 08 00 00 49 05 02 81 00 00 23 3A[0m
[93m[10:53:09.020] LOCAL → REMOTE       0A 03 1A 88 00 04 C2 40[0m
[93m[10:53:09.212] LOCAL → REMOTE       0A 03 1A 88 00 04[0m
[96m[10:53:09.223] REMOTE → LOCAL       0A 03 08 00 10 45 06 02 90 00 00 26 32[0m
[93m[10:53:09.228] LOCAL → REMOTE       C2 40[0m
[93m[10:53:09.290] LOCAL → REMOTE       0A 03 1A 8C 00 04 83 81[0m
[93m[10:53:09.483] LOCAL → REMOTE       0A 03 1A 8C 00 04 83 81[0m
[96m[10:53:09.498] REMOTE → LOCAL       0A 03 08 00 04 43 06 02 92 00 00 D3 95[0m
[93m[10:53:09.561] LOCAL → REMOTE       0A 03 1A 90 00 04 42 47[0m
[93m[10:53:09.754] LOCAL → REMOTE       0A 03 1A 90 00 04 42 47[0m
[93m[10:53:09.962] LOCAL → REMOTE       0A 03 1A 90 00 04 42 47[0m
[96m[10:53:10.049] REMOTE → LOCAL       0A 03 08 20 10 45 01 02 A9 00 00 41 E7[0m
[93m[10:53:10.107] LOCAL → REMOTE       0A 03 1A 94 00 04 03 86[0m
[93m[10:53:10.315] LOCAL → REMOTE       0A 03 1A 94 00 04 03 86[0m
[96m[10:53:10.324] REMOTE → LOCAL       0A 03 08 20 10 45 01 02 A9 00 00 41 E7[0m
[93m[10:53:10.393] LOCAL → REMOTE       0A 03 1A 98 00 04 C3 85[0m
[96m[10:53:10.576] REMOTE → LOCAL       0A 03 08 00 02 42 04 06 32 00 00 CC 96[0m
[93m[10:53:10.584] LOCAL → REMOTE       0A 03 1A 98 00 04 C3 85[0m
[93m[10:53:10.631] LOCAL → REMOTE       0A 03 1A 9C 00 04 82 44[0m
[93m[10:53:10.839] LOCAL → REMOTE       0A 03 1A 9C 00 04 82 44[0m
[96m[10:53:10.850] REMOTE → LOCAL       0A 03 08 10 00 C7 02 06 43 00 00 29 D4[0m
[93m[10:53:10.907] LOCAL → REMOTE       0A 03 1A A0 00 04 42 48[0m
[96m[10:53:11.099] REMOTE → LOCAL       0A 03 08 10 04 43 04 06 49 00 00 DA 52[0m
[93m[10:53:11.161] LOCAL → REMOTE       0A 03 1A A4 00 04 03 89[0m
[93m[10:53:11.369] LOCAL → REMOTE       0A 03 1A A4 00 04 03 89[0m
[96m[10:53:11.373] REMOTE → LOCAL       0A 03 08 20 00 C8 05 06 5B 00 00 1F F8[0m
[93m[10:53:11.431] LOCAL → REMOTE       0A 03 1A A8 00 04 C3 8A[0m
[93m[10:53:11.639] LOCAL → REMOTE       0A 03 1A A8 00 04 C3 8A[0m
[96m[10:53:11.651] REMOTE → LOCAL       0A 03 08 20 10 45 01 06 69 00 00 40 EB[0m
[93m[10:53:11.707] LOCAL → REMOTE       0A[0m
[93m[10:53:11.722] LOCAL → REMOTE       03 1A AC 00 04 82 4B[0m
[93m[10:53:11.914] LOCAL → REMOTE       0A 03 1A AC 00 04 82 4B[0m
[96m[10:53:11.924] REMOTE → LOCAL       0A 03 08 00 04 43 04 06 A7 00 00 BB 6B[0m
[93m[10:53:11.992] LOCAL → REMOTE       0A 03 1A B0 00 04 43 8D[0m
[93m[10:53:12.185] LOCAL → REMOTE       0A 03 1A B0 00 04 43 8D[0m
[96m[10:53:12.198] REMOTE → LOCAL       0A 03 08 00 00 49 05 06 AA 00 00 52 02[0m
[93m[10:53:12.263] LOCAL → REMOTE       0A 03 1A B4 00 04 02 4C[0m
[93m[10:53:12.456] LOCAL → REMOTE       0A 03 1A B4 00 04 02 4C[0m
[96m[10:53:12.473] REMOTE → LOCAL       0A 03 08 08 00 C6 06 07 13 00 00 D8 82[0m
[93m[10:53:12.538] LOCAL → REMOTE       0A 03 1A B8 00 04 C2 4F[0m
[93m[10:53:12.726] LOCAL → REMOTE       0A 03 1A B8 00 04 C2 4F[0m
[96m[10:53:12.748] REMOTE → LOCAL       0A 03 08 04 00 C5 06 07 14 00 00 69 25[0m
[93m[10:53:12.809] LOCAL → REMOTE       0A 03 1A BC 00 04 83 8E[0m
[93m[10:53:13.017] LOCAL → REMOTE       0A 03 1A BC 00 04 83 8E[0m
[96m[10:53:13.023] REMOTE → LOCAL       0A 03 08 08 00 C6 06 07 27 00 00 99 4C[0m
[93m[10:53:13.079] LOCAL → REMOTE       0A 03 1A C0 00 04 42 56[0m
[93m[10:53:13.287] LOCAL → REMOTE       0A 03 1A C0 00 04 42 56[0m
[96m[10:53:13.299] REMOTE → LOCAL       0A 03 08 00 02 02 06 0B 81 00 00 48 DD[0m
[93m[10:53:13.370] LOCAL → REMOTE       0A 03 1A C4 00 04 03 97[0m
[93m[10:53:13.562] LOCAL → REMOTE       0A 03 1A C4 00 04 03 97[0m
[96m[10:53:13.573] REMOTE → LOCAL       0A 03 08 00 08 04 02 0B 85 00 00 52 BA[0m
[93m[10:53:13.640] LOCAL → REMOTE       0A 03 1A C8 00 04 C3 94[0m
[93m[10:53:13.832] LOCAL → REMOTE       0A 03 1A C8 00 04 C3 94[0m
[96m[10:53:13.848] REMOTE → LOCAL       0A 03 08 00 02 02 03 0B 88 00 00 54 DF[0m
[93m[10:53:13.910] LOCAL → REMOTE       0A 03 1A CC 00 04 82 55[0m
[93m[10:53:14.102] LOCAL → REMOTE       0A 03 1A CC 00 04 82 55[0m
[96m[10:53:14.123] REMOTE → LOCAL       0A 03 08 10 00 C7 02 0B 94 00 00 9B 40[0m
[93m[10:53:14.185] LOCAL → REMOTE       0A 03 1A D0 00 04 43 93[0m
[93m[10:53:14.393] LOCAL → REMOTE       0A 03 1A D0 00 04 43 93[0m
[96m[10:53:14.398] REMOTE → LOCAL       0A 03 08 10 04 03 04 0B 99 00 00 D7 C7[0m
[93m[10:53:14.456] LOCAL → REMOTE       0A 03 1A D4 00 04 02 52[0m
[93m[10:53:14.663] LOCAL → REMOTE       0A 03 1A D4 00 04 02 52[0m
[96m[10:53:14.680] REMOTE → LOCAL       0A 03 08 20 00 C8 05 0B AB 00 00 1D 67[0m
[93m[10:53:14.741] LOCAL → REMOTE       0A 03 1A D8 00 04 C2 51[0m
[93m[10:53:14.938] LOCAL → REMOTE       0A 03 1A D8 00 04 C2 51[0m
[96m[10:53:14.948] REMOTE → LOCAL       0A 03 08 20 10 05 01 05 83 00 00 6F 9B[0m
[93m[10:53:15.016] LOCAL → REMOTE       0A 03 1A DC 00 04 83 90[0m
[93m[10:53:15.208] LOCAL → REMOTE       0A 03 1A DC 00 04 83 90[0m
[96m[10:53:15.235] REMOTE → LOCAL       0A 03 08 20 00 C8 45 0C D4 00 00 2C 04[0m
[93m[10:53:15.301] LOCAL → REMOTE       0A 03 1A E0 00 04 43 9C[0m
[93m[10:53:15.494] LOCAL → REMOTE       0A 03 1A E0 00 04 43 9C[0m
[96m[10:53:15.505] REMOTE → LOCAL       0A 03 08 20 02 02 41 07 3B 00 00 DC 7F[0m
[93m[10:53:15.577] LOCAL → REMOTE       0A 03 1A E4 00 04 02 5D[0m
[93m[10:53:15.769] LOCAL → REMOTE       0A 03 1A E4 00 04 02 5D[0m
[96m[10:53:15.773] REMOTE → LOCAL       0A 03 08 10 00 C7 42 07 51 00 00 89 E2[0m
[93m[10:53:15.831] LOCAL → REMOTE       0A 03 1A E8 00 04 C2 5E[0m
[93m[10:53:16.039] LOCAL → REMOTE       0A 03 1A E8 00 04 C2 5E[0m
[96m[10:53:16.056] REMOTE → LOCAL       0A 03 08 18 00 C6 44 0D D6 00 00 B2 64[0m
[93m[10:53:16.117] LOCAL → REMOTE       0A 03 1A EC 00 04 83 9F[0m
[93m[10:53:16.310] LOCAL → REMOTE       0A 03 1A EC 00 04[0m
[96m[10:53:16.323] REMOTE → LOCAL       0A 03 08 1C 00 C5 44 0D D6 00 00 B3 A4[0m
[93m[10:53:16.326] LOCAL → REMOTE       83 9F[0m
[93m[10:53:16.393] LOCAL → REMOTE       0A 03 1A F0 00 04 42 59[0m
[93m[10:53:16.584] LOCAL → REMOTE       0A 03 1A F0 00 04 42 59[0m
[96m[10:53:16.598] REMOTE → LOCAL       0A 03 08 14 00 C5 44 0D DA 00 00 72 01[0m
[93m[10:53:16.661] LOCAL → REMOTE       0A 03 1A F4 00 04 03 98[0m
[93m[10:53:16.854] LOCAL → REMOTE       0A 03 1A F4 00 04 03 98[0m
[93m[10:53:17.063] LOCAL → REMOTE       0A 03 1A F4 00 04 03 98[0m
[96m[10:53:17.081] REMOTE → LOCAL       0A 03 08 14 00 C5 44 04 FB 00 00 21 97[0m
[96m[10:53:17.125] REMOTE → LOCAL       0A 03 08 14 00 C5 44 04 FB 00 00 21 97[0m
[93m[10:53:17.193] LOCAL → REMOTE       0A 03 1A F4 00 04 03 98[0m
[93m[10:53:17.380] LOCAL → REMOTE       0A 03 1A F4 00 04 03 98[0m
[96m[10:53:17.398] REMOTE → LOCAL       0A 03 08 14 00 C5 44 04 FB 00 00 21 97[0m
[93m[10:53:17.463] LOCAL → REMOTE       0A 03 1A F8 00 04 C3 9B[0m
[93m[10:53:17.656] LOCAL → REMOTE       0A 03 1A F8 00 04 C3 9B[0m
[96m[10:53:17.673] REMOTE → LOCAL       0A 03 08 14 00 C5 44 04 FB 00 00 21 97[0m
[93m[10:53:17.734] LOCAL → REMOTE       0A 03 1A FC 00 04 82 5A[0m
[96m[10:53:17.923] REMOTE → LOCAL       0A 03 08 1C 00 C5 44 04 FB 00 00 20 31[0m
[93m[10:53:17.942] LOCAL → REMOTE       0A 03 1A FC 00 04 82 5A[0m
[93m[10:53:17.989] LOCAL → REMOTE       0A 03 1A FC 00 04 82 5A[0m
[96m[10:53:18.172] REMOTE → LOCAL       0A 03 08 18 00 C6 44 05 0A 00 00 71 FE[0m
[93m[10:53:18.229] LOCAL → REMOTE       0A 03 1B 00 00 04 43 96[0m
[96m[10:53:18.423] REMOTE → LOCAL       0A 03 08 18 00 C6 44 05 0A 00 00 71 FE[0m
[93m[10:53:18.436] LOCAL → REMOTE       0A 03 1B 00 00 04 43 96[0m
[93m[10:53:18.488] LOCAL → REMOTE       0A 03 1B 00 00 04 43 96[0m
[93m[10:53:18.680] LOCAL → REMOTE       0A 03 1B 00 00 04 43 96[0m
[96m[10:53:18.718] REMOTE → LOCAL       0A 03 08 10 00 C7 44 05 0A 00 00 71 89[0m
[93m[10:53:18.773] LOCAL → REMOTE       0A 03 1B 04 00 04 02 57[0m
[96m[10:53:18.933] REMOTE → LOCAL       0A 03 08 10 00 C7 44 05 0A 00 00 71 89[0m
[93m[10:53:18.996] LOCAL → REMOTE       0A 03 1B 08 00 04 C2 54[0m
[96m[10:53:19.173] REMOTE → LOCAL       0A 03 08 14 00 C5 44 0E EF 00 00 62 4B[0m
[93m[10:53:19.239] LOCAL → REMOTE       0A 03 0F A0 00 0B 06 40[0m
[93m[10:53:19.427] LOCAL → REMOTE       0A 03 0F A0 00 0B 06 40[0m
[96m[10:53:19.432] REMOTE → LOCAL       0A 03 08 1C 00 C5 44 0E F0 00 00 52 2B[0m
[93m[10:53:19.495] LOCAL → REMOTE       0A 03 0F AB 00 0B 77 82[0m
[96m[10:53:19.673] REMOTE → LOCAL       0A 03 16 19 00 04 04 33 43 4E 54 00 00 00 00 00 00 00 00 00 00 00 00 00 00 62 75[0m
[93m[10:53:19.734] LOCAL → REMOTE       0A 03 0F B6 00 0B E7 84[0m
[96m[10:53:19.923] REMOTE → LOCAL       0A 03 16 19 02 04 04 33 4C 55 4E 00 00 00 00 00 00 00 00 00 00 00 00 00 00 A4 94[0m
[93m[10:53:19.988] LOCAL → REMOTE       0A 03 0F C1 00 0B 57 9E[0m
[96m[10:53:20.173] REMOTE → LOCAL       0A 03 16 13 04 04 04 33 52 50 4D 00 00 00 00 00 00 00 00 00 00 00 00 00 00 01 79[0m
[93m[10:53:20.179] LOCAL → REMOTE       0A 03 0F C1 00 0B 57 9E[0m
[93m[10:53:20.231] LOCAL → REMOTE       0A 03 0F C1 00 0B 57 9E[0m
[96m[10:53:20.423] REMOTE → LOCAL       0A 03 16 12 06 05 0B 33 41 4D 50 00 00 00 00 00 00 00 00 00 00 00 00 00 00 71 F6[0m
[93m[10:53:20.486] LOCAL → REMOTE       0A 03 0F CC 00 0B C6 5D[0m
[96m[10:53:20.672] REMOTE → LOCAL       0A 03 16 12 06 05 0B 33 41 4D 50 00 00 00 00 00 00 00 00 00 00 00 00 00 00 71 F6[0m
[93m[10:53:20.740] LOCAL → REMOTE       0A 03 0F D7 00 0B B6 5A[0m
[96m[10:53:20.922] REMOTE → LOCAL       0A 03 16 11 08 05 0B 33 42 55 53 00 00 00 00 00 00 00 00 00 00 00 00 00 00 54 36[0m
[93m[10:53:20.980] LOCAL → REMOTE       0A 03 0F E2 00 0B A6 54[0m
[96m[10:53:21.173] REMOTE → LOCAL       0A 03 16 20 15 04 02 33 43 4D 50 00 00 00 00 00 00 00 00 00 00 00 00 00 00 83 B6[0m
[93m[10:53:21.186] LOCAL → REMOTE       0A 03 0F ED 00 0B 96 57[0m
[93m[10:53:21.239] LOCAL → REMOTE       0A 03 0F ED 00 0B 96 57[0m
[93m[10:53:21.430] LOCAL → REMOTE       0A 03 0F ED 00 0B 96[0m
[93m[10:53:21.447] LOCAL → REMOTE       57[0m
[96m[10:53:21.501] REMOTE → LOCAL       0A 03 16 22 19 05 0B 33 41 53 43 00 00 00 00 00 00 00 00 00 00 00 00 00 00 75 2A[0m
[93m[10:53:21.555] LOCAL → REMOTE       0A 03 0F F8 00 0B 87 93[0m
[96m[10:53:21.746] REMOTE → LOCAL       0A 03 16 26 1B 07 19 33 54 49 4E 00 00 00 00 00 00 00 00 00 00 00 00 00 00 8F 58[0m
[93m[10:53:21.815] LOCAL → REMOTE       0A 03 10 03 00 0B F1 B6[0m
[96m[10:53:21.997] REMOTE → LOCAL       0A 03 16 10 20 04 01 32 55 50 00 00 00 00 00 00 00 00 00 00 00 00 00 00 00 B2 BE[0m
[93m[10:53:22.002] LOCAL → REMOTE       0A 03 10 03 00 0B F1 B6[0m
[93m[10:53:22.070] LOCAL → REMOTE       0A 03 10 03 00 0B F1 B6[0m
[93m[10:53:22.262] LOCAL → REMOTE       0A 03 10 03 00 0B F1 B6[0m
[96m[10:53:22.274] REMOTE → LOCAL       0A 03 16 10 21 04 02 32 4F 43 00 00 00 00 00 00 00 00 00 00 00 00 00 00 00 80 71[0m
[93m[10:53:22.340] LOCAL → REMOTE       0A 03 10 0E 00 0B 60 75[0m
[93m[10:53:22.532] LOCAL → REMOTE       0A 03 10 0E 00 0B 60 75[0m
[96m[10:53:22.551] REMOTE → LOCAL       0A 03 16 10 21 04 02 32 4F 43 00 00 00 00 00 00 00 00 00 00 00 00 00 00 00 80 71[0m
[93m[10:53:22.610] LOCAL → REMOTE       0A 03 10 19 00 0B D0 71[0m
[93m[10:53:22.822] LOCAL → REMOTE       0A 03 10 19 00 0B D0 71[0m
[96m[10:53:22.826] REMOTE → LOCAL       0A 03 16 20 27 04 02 32 55 46 00 00 00 00 00 00 00 00 00 00 00 00 00 00 00 3D 34[0m
[93m[10:53:22.884] LOCAL → REMOTE       0A 03 10 24 00 0B 41 BD[0m
[93m[10:53:23.094] LOCAL → REMOTE       0A 03 10 24 00 0B 41 BD[0m
[96m[10:53:23.098] REMOTE → LOCAL       0A 03 16 20 5C 04 04 34 4E 50 54 45 00 00 00 00 00 00 00 00 00 00 00 00 00 70 5A[0m
[93m[10:53:23.156] LOCAL → REMOTE       0A 03 17 70 00 05 80 DD[0m
[93m[10:53:23.363] LOCAL → REMOTE       0A 03 17 70 00 05 80 DD[0m
[96m[10:53:23.379] REMOTE → LOCAL       0A 03 16 20 5D 04 04 34 48 49 42 55 00 00 00 00 00 00 00 00 00 00 00 00 00 CF 6E[0m
[93m[10:53:23.446] LOCAL → REMOTE       0A 03 17 75 00 05 90 DC[0m
[93m[10:53:23.638] LOCAL → REMOTE       0A 03 17 75 00 05 90 DC[0m
[96m[10:53:23.650] REMOTE → LOCAL       0A 03 0A 10 00 34 46 55 53 45 00 51 31 7B CA[0m
[93m[10:53:23.716] LOCAL → REMOTE       0A 03 17 7A 00 05 A0 DF[0m
[93m[10:53:23.908] LOCAL → REMOTE       0A 03 17 7A 00 05 A0 DF[0m
[96m[10:53:23.927] REMOTE → LOCAL       0A 03 0A 20 01 34 4F 46 53 54 00 51 31 E8 3A[0m
[93m[10:53:23.986] LOCAL → REMOTE       0A 03 17 7F 00 05 B0 DE[0m
[93m[10:53:24.194] LOCAL → REMOTE       0A 03 17 7F 00 05 B0 DE[0m
[96m[10:53:24.200] REMOTE → LOCAL       0A 03 0A 20 02 34 50 52 4F 54 00 51 31 C0 DD[0m
[93m[10:53:24.262] LOCAL → REMOTE       0A 03 17 84 00 05 C1 2F[0m
[93m[10:53:24.469] LOCAL → REMOTE       0A 03 17 84 00 05 C1 2F[0m
[96m[10:53:24.475] REMOTE → LOCAL       0A 03 0A 10 03 34 53 45 43 4F 00 51 31 EB 70[0m
[93m[10:53:24.531] LOCAL → REMOTE       0A 03 17 89 00 05 50 EC[0m
[93m[10:53:24.739] LOCAL → REMOTE       0A 03 17 89 00 05 50 EC[0m
[96m[10:53:24.762] REMOTE → LOCAL       0A 03 0A 30 04 34 44 41 54 41 00 51 31 DC 44[0m
[93m[10:53:24.821] LOCAL → REMOTE       0A 03 17 8E 00 05 E1 2D[0m
[93m[10:53:25.030] LOCAL → REMOTE       0A 03 17 8E 00 05 E1 2D[0m
[96m[10:53:25.048] REMOTE → LOCAL       0A 03 0A 40 05 34 4D 4F 54 31 00 51 31 51 11[0m
[93m[10:53:25.107] LOCAL → REMOTE       0A 03 17 93 00 05 71 2B[0m
[96m[10:53:25.297] REMOTE → LOCAL       0A 03 0A 00 08 34 45 4E 45 31 00 51 31 7F 47[0m
[93m[10:53:25.363] LOCAL → REMOTE       0A 03 17 98 00 05 00 E9[0m
[96m[10:53:25.550] REMOTE → LOCAL       0A 03 0A 00 0A 34 45 4E 45 33 00 51 31 67 9F[0m
[93m[10:53:25.555] LOCAL → REMOTE       0A 03 17 98 00 05 00 E9[0m
[93m[10:53:25.617] LOCAL → REMOTE       0A 03 17 9D 00 05 10 E8[0m
[93m[10:53:25.809] LOCAL → REMOTE       0A 03 17 9D 00 05 10 E8[0m
[96m[10:53:25.827] REMOTE → LOCAL       0A 03 0A 00 0C 34 45 4E 45 35 00 51 31 4C B7[0m
[93m[10:53:25.892] LOCAL → REMOTE       0A 03 17 A2 00 05 20 E4[0m
[93m[10:53:26.085] LOCAL → REMOTE       0A 03 17 A2 00 05 20 E4[0m
[96m[10:53:26.097] REMOTE → LOCAL       0A 03 0A 00 0E 34 45 4E 45 37 00 51 31 54 6F[0m
[93m[10:53:26.163] LOCAL → REMOTE       0A 03 17 A7 00 05 30 E5[0m
[93m[10:53:26.353] LOCAL → REMOTE       0A 03 17 A7 00 05 30 E5[0m
[96m[10:53:26.373] REMOTE → LOCAL       0A 03 0A 00 1B 34 54 45 4D 50 00 51 31 58 30[0m
[93m[10:53:26.436] LOCAL → REMOTE       0A 03 17 AC 00 05 41 27[0m
[93m[10:53:26.644] LOCAL → REMOTE       0A 03 17 AC 00 05 41 27[0m
[96m[10:53:26.659] REMOTE → LOCAL       0A 03 0A 10 1C 34 42 41 54 54 00 51 31 15 22[0m
[93m[10:53:26.721] LOCAL → REMOTE       0A 03 17 B1 00 05 D1 21[0m
[93m[10:53:26.913] LOCAL → REMOTE       0A 03 17 B1 00 05 D1 21[0m
[96m[10:53:26.922] REMOTE → LOCAL       0A 03 0A 10 1D 34 42 54 4C 4F 00 51 31 3C 91[0m
[93m[10:53:26.981] LOCAL → REMOTE       0A 03 17 B6 00 05 60 E0[0m
[93m[10:53:27.189] LOCAL → REMOTE       0A 03 17 B6 00 05 60 E0[0m
[96m[10:53:27.199] REMOTE → LOCAL       0A 03 0A 50 35 35 41 50 50 2E 45 00 00 10 A3[0m
[93m[10:53:27.266] LOCAL → REMOTE       0A 03 17 BB 00 05 F1 23[0m
[93m[10:53:27.459] LOCAL → REMOTE       0A 03 17 BB 00 05 F1 23[0m
[96m[10:53:27.474] REMOTE → LOCAL       0A 03 0A 50 36 35 41 50 50 2E 4C 00 00 D4 51[0m
[93m[10:53:27.536] LOCAL → REMOTE       0A 03 17 C0 00 05 81 3A[0m
[93m[10:53:27.729] LOCAL → REMOTE       0A 03 17 C0 00 05 81 3A[0m
[96m[10:53:27.750] REMOTE → LOCAL       0A 03 0A 00 28 32 46 45 00 2E 4C 00 00 A3 5F[0m
[93m[10:53:27.812] LOCAL → REMOTE       0A 03 17 C5 00 05 91 3B[0m
[93m[10:53:28.021] LOCAL → REMOTE       0A 03 17 C5 00 05 91 3B[0m
[96m[10:53:28.033] REMOTE → LOCAL       0A 03 0A 10 29 37 55 4E 44 56 4F 4C 54 61 4F[0m
[93m[10:53:28.098] LOCAL → REMOTE       0A 03 15 E0 00 47 01 79[0m
[93m[10:53:28.291] LOCAL → REMOTE       0A 03 15 E0 00 47 01 79[0m
[96m[10:53:28.298] REMOTE → LOCAL       0A 03 0A 60 2C 37 4F 56 54 4F 52 51 31 7B CF[0m
[93m[10:53:28.353] LOCAL → REMOTE       0A 03 17 0C 00 01 40 C6[0m
[93m[10:53:28.562] LOCAL → REMOTE       0A 03 17 0C 00 01 40 C6[0m
[96m[10:53:28.574] REMOTE → LOCAL       0A 03 8E 00 00 00 05 00 00 00 00 00 00 00 00 00 00 00 00 00 00 00 00 00 04 00 04 00 05 00 05 00 32 00 0A 00 00 00 5D 00 00 00 00 00 00 00 00 00 00 00 03 00 00 00 00 00 09 00 14 00 00 00 04 00 04 00 00 00 00 00 00 00 00 00 05 00 05 00 03 00 05 00 01 00 00 00 02 00 00 00 00 00 02 00 00 00 00 00 00 00 00 00 00 00 00 00 00 00 05 00 01 00 00 00 00 00 00 00 00 00 00 00 00 00 01 00 02 00 3C 00 00 00 00 00 03 00 00 00 00 00 00 00 00 00 00 6C 00[0m
[93m[10:53:28.640] LOCAL → REMOTE       0A 03 17 11 00 02 90 C1[0m
[93m[10:53:28.848] LOCAL → REMOTE       0A 03 17 11 00 02 90 C1[0m
[96m[10:53:28.856] REMOTE → LOCAL       0A 03 02 00 00 1D 85[0m
[93m[10:53:28.916] LOCAL → REMOTE       0A 03 19 32 00 0A 62 25[0m
[93m[10:53:29.124] LOCAL → REMOTE       0A 03 19 32 00 0A 62 25[0m
[96m[10:53:29.124] REMOTE → LOCAL       0A 03 04 00 0C 04 F2 03 B5[0m
[93m[10:53:29.186] LOCAL → REMOTE       0A 03 19 32 00 0A 62 25[0m
[93m[10:53:29.392] LOCAL → REMOTE       0A 03 19 32 00 0A 62 25[0m
[96m[10:53:29.399] REMOTE → LOCAL       0A 03 14 FF 00 FF 00 FF 00 FF 00 FF 00 FF 00 FF 00 FF 00 FF 00 FF 00 26 5D[0m
[93m[10:53:29.459] LOCAL → REMOTE       0A 03 13 92 00 0A 61 DF[0m
[93m[10:53:29.665] LOCAL → REMOTE       0A 03 13 92 00 0A 61 DF[0m
[96m[10:53:29.676] REMOTE → LOCAL       0A 03 14 FF 00 FF 00 FF 00 FF 00 FF 00 FF 00 FF 00 FF 00 FF 00 FF 00 26 5D[0m
[93m[10:53:29.748] LOCAL → REMOTE       0A 03 13 9C 00 0A 00 1C[0m
[93m[10:53:29.936] LOCAL → REMOTE       0A 03 13 9C 00 0A 00 1C[0m
[96m[10:53:29.948] REMOTE → LOCAL       0A 03 14 00 59 00 00 00 00 00 00 32 41 50 00 00 00 00 00 00 00 00 00 75 4E[0m
[93m[10:53:30.019] LOCAL → REMOTE       0A 03 13 A6 00 0A 20 11[0m
[93m[10:53:30.211] LOCAL → REMOTE       0A 03 13 A6 00 0A 20 11[0m
[96m[10:53:30.222] REMOTE → LOCAL       0A 03 14 00 9A 00 00 00 00 00 00 32 43 48 00 00 00 00 00 00 00 00 00 86 DC[0m
[93m[10:53:30.289] LOCAL → REMOTE       0A 03 13 B0 00 0A C1 D5[0m
[93m[10:53:30.482] LOCAL → REMOTE       0A 03 13 B0 00 0A C1 D5[0m
[96m[10:53:30.500] REMOTE → LOCAL       0A 03 14 00 DB 00 04 00 00 00 00 32 50 50 00 00 00 00 00 00 00 00 00 37 D5[0m
[93m[10:53:30.559] LOCAL → REMOTE       0A 03 13 BA 00 0A E1 D7[0m
[93m[10:53:30.769] LOCAL → REMOTE       0A 03 13 BA 00 0A E1 D7[0m
[96m[10:53:30.773] REMOTE → LOCAL       0A 03 14 01 1C 00 06 00 00 00 00 33 50 45 44 00 00 00 00 00 00 00 00 CD 44[0m
[93m[10:53:30.831] LOCAL → REMOTE       0A 03 13 C4 00 0A 81 CF[0m
[93m[10:53:31.039] LOCAL → REMOTE       0A 03 13 C4 00 0A 81 CF[0m
[96m[10:53:31.054] REMOTE → LOCAL       0A 03 14 01 58 00 3F 00 00 00 00 33 4F 52 4F 00 00 00 00 00 00 00 00 4C 4D[0m
[93m[10:53:31.122] LOCAL → REMOTE       0A 03 13 CE 00 0A A1 CD[0m
[93m[10:53:31.314] LOCAL → REMOTE       0A 03 13 CE 00 0A A1 CD[0m
[96m[10:53:31.324] REMOTE → LOCAL       0A 03 14 01 80 00 3B 00 00 00 00 33 52 58 31 00 00 00 00 00 00 00 00 72 D1[0m
[93m[10:53:31.392] LOCAL → REMOTE       0A 03 14 5A 00 0A E1 55[0m
[93m[10:53:31.584] LOCAL → REMOTE       0A 03 14 5A 00 0A E1 55[0m
[96m[10:53:31.597] REMOTE → LOCAL       0A 03 14 01 C0 00 3C 00 00 00 00 33 52 58 32 00 00 00 00 00 00 00 00 C1 DF[0m
[93m[10:53:31.662] LOCAL → REMOTE       0A 03 14 64 00 0A 80 99[0m
[93m[10:53:31.854] LOCAL → REMOTE       0A 03 14 64 00 0A 80 99[0m
[96m[10:53:31.880] REMOTE → LOCAL       0A 03 14 00 51 00 00 00 00 00 00 32 53 54 00 00 00 00 00 00 00 00 00 89 82[0m
[93m[10:53:31.937] LOCAL → REMOTE       0A 03 14 6E 00 0A A0 9B[0m
[93m[10:53:32.145] LOCAL → REMOTE       0A 03 14 6E 00 0A A0 9B[0m
[96m[10:53:32.147] REMOTE → LOCAL       0A 03 14 00 8F 00 38 00 00 00 00 34 43 4F 53 31 00 00 00 00 00 00 00 8E E7[0m
[93m[10:53:32.207] LOCAL → REMOTE       0A 03 14 78 00 0A 41 5F[0m
[93m[10:53:32.415] LOCAL → REMOTE       0A 03 14 78 00 0A 41 5F[0m
[96m[10:53:32.424] REMOTE → LOCAL       0A 03 14 00 CE 00 39 00 00 00 00 34 43 4F 53 32 00 00 00 00 00 00 00 B7 51[0m
[93m[10:53:32.478] LOCAL → REMOTE       0A 03 14 82 00 0A 61 6E[0m
[93m[10:53:32.691] LOCAL → REMOTE       0A 03 14 82 00 0A 61 6E[0m
[96m[10:53:32.698] REMOTE → LOCAL       0A 03 14 01 0D 02 28 00 00 00 00 33 46 54 31 00 00 00 00 00 00 00 00 A8 E0[0m
[93m[10:53:32.768] LOCAL → REMOTE       0A 03 14 8C 00 0A 00 AD[0m
[93m[10:53:32.959] LOCAL → REMOTE       0A 03 14 8C 00 0A 00 AD[0m
[96m[10:53:32.972] REMOTE → LOCAL       0A 03 14 01 4C 02 2B 00 00 00 00 33 46 54 32 00 00 00 00 00 00 00 00 64 D3[0m
[93m[10:53:33.042] LOCAL → REMOTE       0A 03 14 96 00 0A 21 6A[0m
[93m[10:53:33.232] LOCAL → REMOTE       0A 03 14 96 00 0A 21 6A[0m
[96m[10:53:33.258] REMOTE → LOCAL       0A 03 14 01 80 00 00 00 00 00 00 32 46 41 00 00 00 00 00 00 00 00 00 25 F4[0m
[93m[10:53:33.326] LOCAL → REMOTE       0A 03 14 B4 00 0A 81 60[0m
[93m[10:53:33.519] LOCAL → REMOTE       0A 03 14 B4 00 0A 81 60[0m
[96m[10:53:33.546] REMOTE → LOCAL       0A 03 14 01 C0 00 00 00 00 00 00 32 46 43 00 00 00 00 00 00 00 00 00 91 F1[0m
[93m[10:53:33.618] LOCAL → REMOTE       0A 03 19 64 00 07 43 F0[0m
[96m[10:53:33.772] REMOTE → LOCAL       0A 03 14 02 80 00 00 00 00 00 00 32 53 42 00 00 00 00 00 00 00 00 00 D4 C4[0m
[93m[10:53:33.841] LOCAL → REMOTE       0A 03 15 7C 00 06 01 67[0m
[96m[10:53:34.023] REMOTE → LOCAL       0A 03 0E 00 00 00 00 00 00 00 00 00 00 00 00 00 00 98 27[0m
[93m[10:53:34.031] LOCAL → REMOTE       0A 03 15 7C 00 06 01 67[0m
[93m[10:53:34.078] LOCAL → REMOTE       0A 03 15 7C 00 06 01 67[0m
[96m[10:53:34.280] REMOTE → LOCAL       0A 03 0C 00 00 00 00 00 00 00 00 08 05 00 00 CA 16[0m
[93m[10:53:34.286] LOCAL → REMOTE       0A 03 15 7C 00 06 01 67[0m
[93m[10:53:34.333] LOCAL → REMOTE       0A 03 17 0C 00 01 40 C6[0m
[96m[10:53:34.522] REMOTE → LOCAL       0A 03 0C 00 00 00 00 00 00 00 00 08 05 00 00 CA 16[0m
[93m[10:53:34.592] LOCAL → REMOTE       0A 03 17 11 00 02 90 C1[0m
[96m[10:53:34.772] REMOTE → LOCAL       0A 03 02 00 00 1D 85[0m
[93m[10:53:34.832] LOCAL → REMOTE       0A 03 19 64 00 07 43 F0[0m
[96m[10:53:35.022] REMOTE → LOCAL       0A 03 04 00 0C 04 F2 03 B5[0m
[93m[10:53:35.039] LOCAL → REMOTE       0A 03 19 64 00 07 43 F0[0m
[93m[10:53:35.086] LOCAL → REMOTE       0A 03 19 64 00 07 43 F0[0m
[96m[10:53:35.274] REMOTE → LOCAL       0A 03 0E 00 00 00 00 00 00 00 00 00 00 00 00 00 00 98 27[0m
[93m[10:53:35.278] LOCAL → REMOTE       0A 03 19 64 00 07 43 F0[0m
[93m[10:53:35.346] LOCAL → REMOTE       0A 03 15 7C 00 06 01 67[0m
[93m[10:53:35.533] LOCAL → REMOTE       0A 03 15 7C 00 06 01 67[0m
[96m[10:53:35.546] REMOTE → LOCAL       0A 03 0E 00 00 00 00 00 00 00 00 00 00 00 00 00 00 98 27[0m
[93m[10:53:35.616] LOCAL → REMOTE       0A 03 15 7C 00 06 01 67[0m
[96m[10:53:35.796] REMOTE → LOCAL       0A 03 0C 00 00 00 00 00 00 00 00 08 05 00 00 CA 16[0m
[93m[10:53:35.856] LOCAL → REMOTE       0A 03 17 0C 00 01 40 C6[0m
[96m[10:53:36.047] REMOTE → LOCAL       0A 03 0C 00 00 00 00 00 00 00 00 08 05 00 00 CA 16[0m
[93m[10:53:36.064] LOCAL → REMOTE       0A 03 17 0C 00 01 40 C6[0m
