[93m[10:55:28.951] LOCAL → REMOTE       0A 03 17 11 00[0m
[93m[10:55:28.967] LOCAL → REMOTE       02 90 C1[0m
[93m[10:55:29.158] LOCAL → REMOTE       0A 03 17 11 00 02 90 C1[0m
[96m[10:55:29.289] REMOTE → LOCAL       0A 03 04 00 8C 04 F2 02 5D[0m
[93m[10:55:29.351] LOCAL → REMOTE       0A 03 19 64 00 07 43 F0[0m
[93m[10:55:29.557] LOCAL → REMOTE       0A 03 19 64 00 07 43 F0[0m
[96m[10:55:29.563] REMOTE → LOCAL       0A 03 0E 00 00 00 00 00 00 00 00 00 00 00 00 00 00 98 27[0m
[93m[10:55:29.624] LOCAL → REMOTE       0A 03 15 7C 00 06 01 67[0m
[93m[10:55:29.827] LOCAL → REMOTE       0A 03 15 7C 00 06 01 67[0m
[96m[10:55:29.838] REMOTE → LOCAL       0A 03 0E 00 00 00 00 00 00 00 00 00 00 00 00 00 00 98 27[0m
[93m[10:55:29.895] LOCAL → REMOTE       0A 03 15 7C 00 06 01[0m
[93m[10:55:29.910] LOCAL → REMOTE       67[0m
[93m[10:55:30.103] LOCAL → REMOTE       0A 03 15 7C 00 06 01 67[0m
[96m[10:55:30.113] REMOTE → LOCAL       0A 03 0C 00 00 00 00 00 00 00 00 0F 06 00 00 3B 62[0m
[93m[10:55:30.181] LOCAL → REMOTE       0A 03 17 0C 00 01 40 C6[0m
[96m[10:55:30.364] REMOTE → LOCAL       0A 03 0C 00 00 00 00 00 00 00 00 0F 06 00 00 3B 62[0m
[93m[10:55:30.373] LOCAL → REMOTE       0A 03 17 0C 00 01 40 C6[0m
[93m[10:55:30.420] LOCAL → REMOTE       0A 03 17 0C 00 01 40 C6[0m
[93m[10:55:30.627] LOCAL → REMOTE       0A 03 17 0C 00 01 40 C6[0m
[96m[10:55:30.639] REMOTE → LOCAL       0A 03 02 00 00 1D 85[0m
[93m[10:55:30.694] LOCAL → REMOTE       0A 03 17 11 00 02 90 C1[0m
[93m[10:55:30.902] LOCAL → REMOTE       0A 03 17 11 00 02 90 C1[0m
[96m[10:55:30.913] REMOTE → LOCAL       0A 03 02 00 00 1D 85[0m
[93m[10:55:30.980] LOCAL → REMOTE       0A 03 19 64 00 07 43 F0[0m
[93m[10:55:31.171] LOCAL → REMOTE       0A 03 19 64 00 07 43 F0[0m
[96m[10:55:31.192] REMOTE → LOCAL       0A 03 04 00 8C 04 F2 02 5D[0m
[93m[10:55:31.254] LOCAL → REMOTE       0A 03 15 7C 00 06 01 67[0m
[93m[10:55:31.462] LOCAL → REMOTE       0A 03 15 7C 00 06 01 67[0m
[96m[10:55:31.463] REMOTE → LOCAL       0A 03 0E 00 00 00 00 00 00 00 00 00 00 00 00 00 00 98 27[0m
[93m[10:55:31.524] LOCAL → REMOTE       0A 03 15 7C 00 06 01 67[0m
[96m[10:55:31.714] REMOTE → LOCAL       0A 03 0C 00 00 00 00 00 00 00 00 0F 06 00 00 3B 62[0m
[93m[10:55:31.778] LOCAL → REMOTE       0A 03 17 0C 00 01 40 C6[0m
[93m[10:55:31.971] LOCAL → REMOTE       0A 03 17 0C 00 01 40 C6[0m
[96m[10:55:31.988] REMOTE → LOCAL       0A 03 0C 00 00 00 00 00 00 00 00 0F 06 00 00 3B 62[0m
[93m[10:55:32.054] LOCAL → REMOTE       0A 03 17 11 00 02 90 C1[0m
[93m[10:55:32.247] LOCAL → REMOTE       0A 03 17 11 00 02 90 C1[0m
[96m[10:55:32.263] REMOTE → LOCAL       0A 03 02 00 00 1D 85[0m
[93m[10:55:32.325] LOCAL → REMOTE       0A 03 19 64 00 07 43 F0[0m
[93m[10:55:32.533] LOCAL → REMOTE       0A 03 19 64 00 07 43 F0[0m
[96m[10:55:32.542] REMOTE → LOCAL       0A 03 04 00 8C 04 F2 02 5D[0m
[93m[10:55:32.596] LOCAL → REMOTE       0A 03 15[0m
[93m[10:55:32.611] LOCAL → REMOTE       7C 00 06 01 67[0m
[93m[10:55:32.803] LOCAL → REMOTE       0A 06 19 65 68 02 31 F3[0m
[96m[10:55:32.818] REMOTE → LOCAL       0A 03 0E 00 00 00 00 00 00 00 00 00 00 00 00 00 00 98 27[0m
[93m[10:55:32.886] LOCAL → REMOTE       0A 03 15 7C 00 06 01 67[0m
[93m[10:55:33.074] LOCAL → REMOTE       0A 03 15 7C 00 06 01 67[0m
[96m[10:55:33.092] REMOTE → LOCAL       0A 06 19 65 68 02 31 F3[0m
[93m[10:55:33.157] LOCAL → REMOTE       0A 03 15 7C 00 06 01 67[0m
[93m[10:55:33.349] LOCAL → REMOTE       0A 03 15 7C 00 06 01 67[0m
[96m[10:55:33.371] REMOTE → LOCAL       0A 03 0C 00 00 00 00 00 00 00 00 0F 06 00 00 3B 62[0m
[93m[10:55:33.427] LOCAL → REMOTE       0A 03 17 0C 00 01 40 C6[0m
[93m[10:55:33.635] LOCAL → REMOTE       0A 03 17 0C 00 01 40 C6[0m
[96m[10:55:33.640] REMOTE → LOCAL       0A 03 0C 00 00 00 00 00 00 00 00 0F 01 00 00 8A A3[0m
[93m[10:55:33.698] LOCAL → REMOTE       0A 03 17 11 00 02 90 C1[0m
[93m[10:55:33.910] LOCAL → REMOTE       0A 03 17 11 00 02 90 C1[0m
[96m[10:55:33.914] REMOTE → LOCAL       0A 03 02 00 00 1D 85[0m
[93m[10:55:33.973] LOCAL → REMOTE       0A 03 19 64 00 07 43 F0[0m
[93m[10:55:34.179] LOCAL → REMOTE       0A 03 19 64 00 07 43 F0[0m
[96m[10:55:34.195] REMOTE → LOCAL       0A 03 04 00 8C 04 F2 02 5D[0m
[93m[10:55:34.261] LOCAL → REMOTE       0A 03 15 7C 00 06 01 67[0m
[93m[10:55:34.453] LOCAL → REMOTE       0A 03 15 7C 00 06 01 67[0m
[96m[10:55:34.467] REMOTE → LOCAL       0A 03 0E 00 00 00 00 00 00 00 00 00 00 00 00 00 00 98 27[0m
[93m[10:55:34.531] LOCAL → REMOTE       0A 03 15 7C 00 06 01 67[0m
[93m[10:55:34.724] LOCAL → REMOTE       0A 03 15 7C 00 06 01 67[0m
[96m[10:55:34.740] REMOTE → LOCAL       0A 03 0C 00 00 00 00 00 00 00 00 0F 01 00 00 8A A3[0m
[93m[10:55:34.802] LOCAL → REMOTE       0A 03 17 0C 00 01 40 C6[0m
[93m[10:55:34.996] LOCAL → REMOTE       0A 03 17 0C 00 01 40 C6[0m
[96m[10:55:35.016] REMOTE → LOCAL       0A 03 0C 00 00 00 00 00 00 00 00 0F 01 00 00 8A A3[0m
[93m[10:55:35.073] LOCAL → REMOTE       0A 03 17 11 00 02 90 C1[0m
[93m[10:55:35.285] LOCAL → REMOTE       0A 03 17 11 00 02 90 C1[0m
[96m[10:55:35.289] REMOTE → LOCAL       0A 03 02 00 00 1D 85[0m
[93m[10:55:35.346] LOCAL → REMOTE       0A 03 19 64 00 07 43 F0[0m
[93m[10:55:35.555] LOCAL → REMOTE       0A 03 19 64 00 07 43 F0[0m
[96m[10:55:35.566] REMOTE → LOCAL       0A 03 04 00 0C 04 F2 03 B5[0m
[93m[10:55:35.638] LOCAL → REMOTE       0A 03 15 7C 00 06 01 67[0m
[93m[10:55:35.825] LOCAL → REMOTE       0A 03 15 7C 00 06 01 67[0m
[96m[10:55:35.839] REMOTE → LOCAL       0A 03 0E 00 00 00 00 00 00 00 00 00 00 00 00 00 00 98 27[0m
[93m[10:55:35.908] LOCAL → REMOTE       0A 03 15 7C 00 06 01 67[0m
[93m[10:55:36.100] LOCAL → REMOTE       0A 03 15 7C 00 06 01 67[0m
[96m[10:55:36.114] REMOTE → LOCAL       0A 03 0C 00 00 00 00 00 00 00 00 0F 01 00 00 8A A3[0m
[93m[10:55:36.178] LOCAL → REMOTE       0A 03 17 0C 00 01 40 C6[0m
[93m[10:55:36.371] LOCAL → REMOTE       0A 03 17 0C 00 01 40 C6[0m
[96m[10:55:36.390] REMOTE → LOCAL       0A 03 0C 00 00 00 00 00 00 00 00 0F 01 00 00 8A A3[0m
[93m[10:55:36.448] LOCAL → REMOTE       0A 03 17 11 00 02 90 C1[0m
[93m[10:55:36.660] LOCAL → REMOTE       0A 03 17 11 00 02 90 C1[0m
[96m[10:55:36.666] REMOTE → LOCAL       0A 03 02 00 00 1D 85[0m
[93m[10:55:36.723] LOCAL → REMOTE       0A 03 19 64 00 07 43 F0[0m
[93m[10:55:36.931] LOCAL → REMOTE       0A 03 19 64 00 07 43 F0[0m
[96m[10:55:36.941] REMOTE → LOCAL       0A 03 04 00 0C 04 F2 03 B5[0m
[93m[10:55:37.009] LOCAL → REMOTE       0A 03 15 7C 00 06 01 67[0m
[93m[10:55:37.205] LOCAL → REMOTE       0A 03 15 7C 00 06 01 67[0m
[96m[10:55:37.214] REMOTE → LOCAL       0A 03 0E 00 00 00 00 00 00 00 00 00 00 00 00 00 00 98 27[0m
[93m[10:55:37.282] LOCAL → REMOTE       0A 03 15 7C 00 06 01 67[0m
[93m[10:55:37.477] LOCAL → REMOTE       0A 03 15 7C 00 06 01 67[0m
[96m[10:55:37.489] REMOTE → LOCAL       0A 03 0C 00 00 00 00 00 00 00 00 0E 01 00 00 8B 5F[0m
[93m[10:55:37.554] LOCAL → REMOTE       0A 03 17 0C 00 01 40 C6[0m
[93m[10:55:37.747] LOCAL → REMOTE       0A 03 17 0C 00 01 40 C6[0m
[96m[10:55:37.767] REMOTE → LOCAL       0A 03 0C 00 00 00 00 00 00 00 00 0D 01 00 00 8B 1B[0m
[93m[10:55:37.825] LOCAL → REMOTE       0A 03 17 11 00 02 90 C1[0m
[93m[10:55:38.032] LOCAL → REMOTE       0A 03 17 11 00 02 90 C1[0m
[96m[10:55:38.037] REMOTE → LOCAL       0A 03 02 00 00 1D 85[0m
[93m[10:55:38.100] LOCAL → REMOTE       0A 03 19 64 00 07 43 F0[0m
[96m[10:55:38.313] REMOTE → LOCAL       0A 03 04 00 0C 04 F2 03 B5[0m
[93m[10:55:38.313] LOCAL → REMOTE       00 10 00 00 00 2B 56 01 00 00 00 00 81 57 69 4E 45 54 00 00 00 00 00 00 00 00 00 00 00 00 00 00 00 00 00 00 00 00 00 00 00 00 00 00 00 52 4F 47 45 52 20 42 2D 43 4F 4E 4E 45 43 54 2D 45 42 38 36 39 31 44 35 00 00 00 00 00 00 00 00 84 F3 EB 86 91 D5 00 00 00 00 00 00 00 00 06 00 37 84 0A 03 19 64 00 07 43 F0[0m
[93m[10:55:38.375] LOCAL → REMOTE       0A 03 15 7C 00 06 01 67[0m
[93m[10:55:38.565] LOCAL → REMOTE       0A 03 15 7C 00 06 01 67[0m
[96m[10:55:38.593] REMOTE → LOCAL       0A 03 0E 00 00 00 00 00 00 00 00 00 00 00 00 00 00 98 27[0m
[93m[10:55:38.648] LOCAL → REMOTE       0A 03[0m
[93m[10:55:38.664] LOCAL → REMOTE       15 7C 00 06 01 67[0m
[93m[10:55:38.857] LOCAL → REMOTE       0A 03 15 7C 00 06 01 67[0m
[93m[10:55:39.065] LOCAL → REMOTE       0A 03 15 7C 00 06 01 67[0m
[93m[10:55:39.258] LOCAL → REMOTE       0A 03 15 7C 00 06 01 67[0m
[93m[10:55:39.465] LOCAL → REMOTE       0A 03 15 7C 00 06 01 67[0m
[93m[10:55:39.653] LOCAL → REMOTE       0A 03 15 7C 00 06 01 67[0m
[93m[10:55:39.865] LOCAL → REMOTE       0A 03 15 7C 00 06 01 67[0m
[93m[10:55:40.053] LOCAL → REMOTE       0A 03 15 7C 00 06 01 67[0m
[93m[10:55:40.265] LOCAL → REMOTE       0A 03 15 7C 00 06 01 67[0m
[96m[10:55:40.337] REMOTE → LOCAL       0A 03 0C 00 00 00 00 00 00 00 00 0C 01 00 00 8A E7[0m
[96m[10:55:40.343] REMOTE → LOCAL       0A 03 0C 00 00 00 00 00 00 00 00 0C 01 00 00 8A E7 0A 03 0C 00 00 00 01 00 00 00 00 0B 01 00 00 86 03 0A 03 0C 00 00 00 00 00 00 00 00 0B 01 00 00 8B 93[0m
[96m[10:55:40.388] REMOTE → LOCAL       0A 03 0C 00 00 00 00 00 00 00 00 0A 01 00 00 8A 6F[0m
[93m[10:55:40.456] LOCAL → REMOTE       0A 03 15 7C 00 06 01 67[0m
[96m[10:55:40.588] REMOTE → LOCAL       0A 03 0C 00 00 00 01 00 00 00 00 0A 01 00 00 87 FF[0m
[93m[10:55:40.649] LOCAL → REMOTE       0A 03 00 64 00 22 85 77[0m
[96m[10:55:40.854] REMOTE → LOCAL       0A 03 44 00 25 80 EB 00 34 07 47 00 00 00 00 00 00 00 00 00 04 00 19 00 1A 00 00 00 20 00 63 00 0C 6E 00 00 00 00 00 00 00 00 54 00 00 00 00 00 00 00 00 08 16 02 03 0D 87 00 FE 04 FE 16 12 00 00 00 05 40 01 04 4B C1 50[0m
[93m[10:55:40.857] LOCAL → REMOTE       0A 03 00 64 00 22 85 77[0m
[93m[10:55:40.919] LOCAL → REMOTE       0A 03 16 A8 00 01 00 D9[0m
[96m[10:55:41.088] REMOTE → LOCAL       0A 03 44 00 25 80 EB 00 34 07 47 00 00 00 00 00 00 00 00 00 04 00 19 00 1A 00 00 00 20 00 63 00 0C 6E 00 00 00 00 00 00 00 00 54 00 00 00 00 00 00 00 00 08 16 02 03 0D 87 00 FE 04 FE 16 12 00 00 00 05 40 01 04 4B C1 50[0m
[93m[10:55:41.158] LOCAL → REMOTE       0A 03 17 0C 00 01 40 C6[0m
[96m[10:55:41.338] REMOTE → LOCAL       0A 03 02 00 7A 9C 66[0m
[93m[10:55:41.397] LOCAL → REMOTE       0A 03 17 11 00 02 90 C1[0m
[93m[10:55:41.606] LOCAL → REMOTE       0A 03 17 11 00 02 90 C1[0m
[96m[10:55:41.612] REMOTE → LOCAL       0A 03 02 00 00 1D 85[0m
[93m[10:55:41.668] LOCAL → REMOTE       0A 03 13 92 00 0A 61 DF[0m
[96m[10:55:41.870] REMOTE → LOCAL       0A 03 04 00 0C 04 F2 03 B5[0m
[93m[10:55:41.876] LOCAL → REMOTE       0A 03 13 92 00 0A 61 DF[0m
[93m[10:55:41.928] LOCAL → REMOTE       0A 03 13 9C 00 0A 00 1C[0m
[93m[10:55:42.135] LOCAL → REMOTE       0A 03 13 9C 00 0A 00 1C[0m
[96m[10:55:42.138] REMOTE → LOCAL       0A 03 14 00 59 00 00 00 00 00 00 32 41 50 00 00 00 00 00 00 00 00 00 75 4E[0m
[93m[10:55:42.197] LOCAL → REMOTE       0A 03 13 A6 00 0A 20 11[0m
[93m[10:55:42.406] LOCAL → REMOTE       0A 03 13 A6 00 0A 20 11[0m
[96m[10:55:42.413] REMOTE → LOCAL       0A 03 14 00 9A 00 00 00 00 00 00 32 43 48 00 00 00 00 00 00 00 00 00 86 DC[0m
[93m[10:55:42.468] LOCAL → REMOTE       0A 03 13 B0 00 0A C1 D5[0m
[96m[10:55:42.662] REMOTE → LOCAL       0A 03 14 00 DB 00 04 00 00 00 00 32 50 50 00 00 00 00 00 00 00 00 00 37 D5[0m
[93m[10:55:42.725] LOCAL → REMOTE       0A 03 13 BA 00 0A E1 D7[0m
[93m[10:55:42.917] LOCAL → REMOTE       0A 03[0m
[93m[10:55:42.933] LOCAL → REMOTE       13 BA 00 0A E1 D7[0m
[96m[10:55:42.937] REMOTE → LOCAL       0A 03 14 01 1C 00 06 00 00 00 00 33 50 45 44 00 00 00 00 00 00 00 00 CD 44[0m
[93m[10:55:43.000] LOCAL → REMOTE       0A 03 13 C4 00 0A 81 CF[0m
[93m[10:55:43.206] LOCAL → REMOTE       0A 03 13 C4 00 0A 81 CF[0m
[96m[10:55:43.213] REMOTE → LOCAL       0A 03 14 01 58 00 3F 00 00 00 00 33 4F 52 4F 00 00 00 00 00 00 00 00 4C 4D[0m
[93m[10:55:43.268] LOCAL → REMOTE       0A 03 13 CE 00 0A A1 CD[0m
[93m[10:55:43.480] LOCAL → REMOTE       0A 03 13 CE 00 0A A1 CD[0m
[96m[10:55:43.487] REMOTE → LOCAL       0A 03 14 01 80 00 3B 00 00 00 00 33 52 58 31 00 00 00 00 00 00 00 00 72 D1[0m
[93m[10:55:43.558] LOCAL → REMOTE       0A 03 14 5A 00 0A E1 55[0m
[93m[10:55:43.751] LOCAL → REMOTE       0A 03 14 5A 00 0A E1 55[0m
[96m[10:55:43.766] REMOTE → LOCAL       0A 03 14 01 C0 00 3C 00 00 00 00 33 52 58 32 00 00 00 00 00 00 00 00 C1 DF[0m
[93m[10:55:43.829] LOCAL → REMOTE       0A 03 14 64 00 0A 80 99[0m
[93m[10:55:44.021] LOCAL → REMOTE       0A 03 14 64 00 0A 80[0m
[96m[10:55:44.023] REMOTE → LOCAL       0A 03 14 00 51 00 00 00 00 00 00 32 53 54 00 00 00 00 00 00 00 00 00 89 82[0m
[93m[10:55:44.037] LOCAL → REMOTE       99[0m
[93m[10:55:44.083] LOCAL → REMOTE       0A 03 14 6E 00 0A A0 9B[0m
[96m[10:55:44.291] REMOTE → LOCAL       0A 03 14 00 8F 00 38 00 00 00 00 34 43 4F 53 31 00 00 00 00 00 00 00 8E E7[0m
[93m[10:55:44.293] LOCAL → REMOTE       0A 03 14 6E 00 0A A0 9B[0m
[93m[10:55:44.360] LOCAL → REMOTE       0A 03 14 78 00 0A 41 5F[0m
[93m[10:55:44.547] LOCAL → REMOTE       0A 03 14 78 00 0A 41 5F[0m
[93m[10:55:44.756] LOCAL → REMOTE       0A 03 14 78 00 0A 41 5F[0m
[96m[10:55:44.840] REMOTE → LOCAL       0A 03 14 01 0D 02 28 00 00 00 00 33 46 54 31 00 00 00 00 00 00 00 00 A8 E0[0m
[93m[10:55:44.901] LOCAL → REMOTE       0A 03 14 82 00 0A 61 6E[0m
[93m[10:55:45.109] LOCAL → REMOTE       0A 03 14 82 00 0A 61 6E[0m
[96m[10:55:45.112] REMOTE → LOCAL       0A 03 14 01 0D 02 28 00 00 00 00 33 46 54 31 00 00 00 00 00 00 00 00 A8 E0[0m
[93m[10:55:45.172] LOCAL → REMOTE       0A 03 14 8C 00 0A 00 AD[0m
[93m[10:55:45.379] LOCAL → REMOTE       0A 03 14 8C 00 0A 00 AD[0m
[96m[10:55:45.387] REMOTE → LOCAL       0A 03 14 01 4C 02 2B 00 00 00 00 33 46 54 32 00 00 00 00 00 00 00 00 64 D3[0m
[93m[10:55:45.447] LOCAL → REMOTE       0A 03 14 96 00 0A 21 6A[0m
[93m[10:55:45.655] LOCAL → REMOTE       0A 03 14 96 00 0A 21 6A[0m
[96m[10:55:45.663] REMOTE → LOCAL       0A 03 14 01 80 00 00 00 00 00 00 32 46 41 00 00 00 00 00 00 00 00 00 25 F4[0m
[93m[10:55:45.733] LOCAL → REMOTE       0A 03 14 B4 00 0A 81 60[0m
[96m[10:55:45.914] REMOTE → LOCAL       0A 03 14 01 C0 00 00 00 00 00 00 32 46 43 00 00 00 00 00 00 00 00 00 91 F1[0m
[93m[10:55:45.926] LOCAL → REMOTE       0A 03 14 B4 00 0A 81 60[0m
[93m[10:55:45.972] LOCAL → REMOTE       0A 03 14 B4 00 0A 81 60[0m
[93m[10:55:46.180] LOCAL → REMOTE       0A 03 14 B4 00 0A 81 60[0m
[96m[10:55:46.188] REMOTE → LOCAL       0A 03 14 02 80 00 00 00 00 00 00 32 53 42 00 00 00 00 00 00 00 00 00 D4 C4[0m
[93m[10:55:46.242] LOCAL → REMOTE       0A 03 19 64 00 07 43 F0[0m
[93m[10:55:46.455] LOCAL → REMOTE       0A 03 19 64 00 07 43 F0[0m
[96m[10:55:46.481] REMOTE → LOCAL       0A 03 14 02 80 00 00 00 00 00 00 32 53 42 00 00 00 00 00 00 00 00 00 D4 C4[0m
[93m[10:55:46.549] LOCAL → REMOTE       0A 03 15 7C 00 06 01 67[0m
[96m[10:55:46.738] REMOTE → LOCAL       0A 03 0E 00 00 00 00 00 00 00 00 00 00 00 00 00 00 98 27[0m
[93m[10:55:46.741] LOCAL → REMOTE       0A 03 15 7C 00 06 01 67[0m
[93m[10:55:46.803] LOCAL → REMOTE       0A 03 15 7C 00 06 01 67[0m
[93m[10:55:46.995] LOCAL → REMOTE       0A 03 15 7C 00 06 01 67[0m
[96m[10:55:47.013] REMOTE → LOCAL       0A 03 0C 00 00 00 01 00 00 00 00 02 01 00 00 85 9F[0m
[93m[10:55:47.078] LOCAL → REMOTE       0A 03 16 A8 00 01 00 D9[0m
[93m[10:55:47.270] LOCAL → REMOTE       0A 03 16 A8 00 01 00 D9[0m
[96m[10:55:47.287] REMOTE → LOCAL       0A 03 0C 00 00 00 00 00 00 00 00 02 01 00 00 88 0F[0m
[93m[10:55:47.348] LOCAL → REMOTE       0A 03 17 0C 00 01 40 C6[0m
[93m[10:55:47.555] LOCAL → REMOTE       0A 03 17 0C 00 01 40 C6[0m
[96m[10:55:47.568] REMOTE → LOCAL       0A 03 02 00 FF 5D C5[0m
[93m[10:55:47.638] LOCAL → REMOTE       0A 03 17 11 00 02 90 C1[0m
[93m[10:55:47.829] LOCAL → REMOTE       0A 03 17 11 00 02 90 C1[0m
[96m[10:55:47.837] REMOTE → LOCAL       0A 03 02 00 00 1D 85[0m
[93m[10:55:47.891] LOCAL → REMOTE       0A 03 19 64 00 07 43 F0[0m
[93m[10:55:48.099] LOCAL → REMOTE       0A 03 19 64 00 07 43 F0[0m
[96m[10:55:48.116] REMOTE → LOCAL       0A 03 04 00 0C 04 F2 03 B5[0m
[93m[10:55:48.182] LOCAL → REMOTE       0A 03 15 7C 00 06 01 67[0m
[93m[10:55:48.374] LOCAL → REMOTE       0A 03 15 7C 00 06 01 67[0m
[96m[10:55:48.386] REMOTE → LOCAL       0A 03 0E 00 00 00 00 00 00 00 00 00 00 00 00 00 00 98 27[0m
[93m[10:55:48.452] LOCAL → REMOTE       0A 03 15 7C 00 06 01 67[0m
[93m[10:55:48.645] LOCAL → REMOTE       0A 03 15 7C 00 06 01 67[0m
[96m[10:55:48.662] REMOTE → LOCAL       0A 03 0C 00 00 00 00 00 00 00 00 01 01 00 00 88 4B[0m
[93m[10:55:48.723] LOCAL → REMOTE       0A 03 17 0C 00 01 40 C6[0m
[93m[10:55:48.931] LOCAL → REMOTE       0A 03 17 0C 00 01 40 C6[0m
[96m[10:55:48.937] REMOTE → LOCAL       0A 03 0C 00 00 00 00 00 00 00 00 01 01 00 00 88 4B[0m
[93m[10:55:48.993] LOCAL → REMOTE       0A 03 17 11 00 02 90 C1[0m
[93m[10:55:49.206] LOCAL → REMOTE       0A 03 17 11 00 02 90 C1[0m
[96m[10:55:49.212] REMOTE → LOCAL       0A 03 02 00 00 1D 85[0m
[93m[10:55:49.268] LOCAL → REMOTE       0A 03 19 64 00 07 43 F0[0m
[93m[10:55:49.476] LOCAL → REMOTE       0A 03 19 64 00 07 43 F0[0m
[96m[10:55:49.486] REMOTE → LOCAL       0A 03 04 00 0C 04 F2 03 B5[0m
[93m[10:55:49.553] LOCAL → REMOTE       0A 03 15 7C 00 06 01 67[0m
[93m[10:55:49.748] LOCAL → REMOTE       0A 03 15 7C 00 06 01 67[0m
[96m[10:55:49.762] REMOTE → LOCAL       0A 03 0E 00 00 00 00 00 00 00 00 00 00 00 00 00 00 98 27[0m
[93m[10:55:49.827] LOCAL → REMOTE       0A 03 15 7C 00 06 01 67[0m
[93m[10:55:50.019] LOCAL → REMOTE       0A 03 15 7C 00 06 01 67[0m
[96m[10:55:50.036] REMOTE → LOCAL       0A 03 0C 00 00 00 00 00 00 00 00 01 01 00 00 88 4B[0m
[93m[10:55:50.102] LOCAL → REMOTE       0A 03 17 0C 00 01 40 C6[0m
[93m[10:55:50.309] LOCAL → REMOTE       0A 03 17 0C 00 01 40 C6[0m
[96m[10:55:50.319] REMOTE → LOCAL       0A 03 0C 00 00 00 00 00 00 00 00 01 01 00 00 88 4B[0m
[93m[10:55:50.387] LOCAL → REMOTE       0A 03 17 11 00 02 90 C1[0m
[93m[10:55:50.579] LOCAL → REMOTE       0A 03 17 11 00 02 90 C1[0m
[96m[10:55:50.595] REMOTE → LOCAL       0A 03 02 00 00 1D 85[0m
[93m[10:55:50.657] LOCAL → REMOTE       0A 03 19 64 00 07 43 F0[0m
[93m[10:55:50.849] LOCAL → REMOTE       0A 03 19 64 00 07 43 F0[0m
[96m[10:55:50.862] REMOTE → LOCAL       0A 03 04 00 4C 04 F2 02 61[0m
[93m[10:55:50.932] LOCAL → REMOTE       0A 03 15 7C 00 06 01 67[0m
[93m[10:55:51.124] LOCAL → REMOTE       0A 03 15 7C 00 06 01 67[0m
[96m[10:55:51.137] REMOTE → LOCAL       0A 03 0E 00 00 00 00 00 00 00 00 00 00 00 00 00 00 98 27[0m
[93m[10:55:51.203] LOCAL → REMOTE       0A 03 15 7C 00 06 01 67[0m
[93m[10:55:51.395] LOCAL → REMOTE       0A 03 15 7C 00 06 01 67[0m
[96m[10:55:51.411] REMOTE → LOCAL       0A 03 0C 00 00 00 00 00 00 00 00 00 01 00 00 89 B7[0m
[93m[10:55:51.473] LOCAL → REMOTE       0A 03 17 0C 00 01 40 C6[0m
[93m[10:55:51.665] LOCAL → REMOTE       0A 03 17 0C 00[0m
[93m[10:55:51.681] LOCAL → REMOTE       01 40 C6[0m
[96m[10:55:51.687] REMOTE → LOCAL       0A 03 0C 00 00 00 00 00 00 00 00 00 05 00 00 C8 76[0m
[93m[10:55:51.748] LOCAL → REMOTE       0A 03 17 11 00 02 90 C1[0m
[93m[10:55:51.956] LOCAL → REMOTE       0A 03 17 11 00 02 90 C1[0m
[96m[10:55:51.968] REMOTE → LOCAL       0A 03 02 00 00 1D 85[0m
[93m[10:55:52.034] LOCAL → REMOTE       0A 03 19 64 00 07 43 F0[0m
[93m[10:55:52.226] LOCAL → REMOTE       0A 03 19 64 00 07 43 F0[0m
[96m[10:55:52.237] REMOTE → LOCAL       0A 03 04 00 4C 04 F2 02 61[0m
[93m[10:55:52.304] LOCAL → REMOTE       0A 03 15 7C 00 06 01 67[0m
[93m[10:55:52.496] LOCAL → REMOTE       0A 03 15 7C 00 06 01 67[0m
[96m[10:55:52.519] REMOTE → LOCAL       0A 03 0E 00 00 00 00 00 00 00 00 00 00 00 00 00 00 98 27[0m
[93m[10:55:52.579] LOCAL → REMOTE       0A 03 15 7C 00 06 01 67[0m
[93m[10:55:52.786] LOCAL → REMOTE       0A 03 15 7C 00 06 01 67[0m
[96m[10:55:52.790] REMOTE → LOCAL       0A 03 0C 00 00 00 00 00 00 00 00 00 05 00 00 C8 76[0m
[93m[10:55:52.849] LOCAL → REMOTE       0A 03 17 0C 00 01 40 C6[0m
[93m[10:55:53.056] LOCAL → REMOTE       0A 03 17 0C 00 01 40 C6[0m
[96m[10:55:53.063] REMOTE → LOCAL       0A 03 0C 00 00 00 00 00 00 00 00 00 05 00 00 C8 76[0m
[93m[10:55:53.124] LOCAL → REMOTE       0A 03 17 11 00 02 90 C1[0m
[93m[10:55:53.331] LOCAL → REMOTE       0A 03 17 11 00 02 90 C1[0m
[96m[10:55:53.340] REMOTE → LOCAL       0A 03 02 00 00 1D 85[0m
[93m[10:55:53.409] LOCAL → REMOTE       0A 03 19 64 00 07 43 F0[0m
[93m[10:55:53.601] LOCAL → REMOTE       0A 03 19 64 00 07 43 F0[0m
[96m[10:55:53.613] REMOTE → LOCAL       0A 03 04 00 4C 04 F2 02 61[0m
[93m[10:55:53.683] LOCAL → REMOTE       0A 03 15 7C 00 06 01 67[0m
[96m[10:55:53.689] REMOTE → LOCAL       0A 03 0E 00 00 00 00 00 00 00 00 00 00 00 00 00 00 98 27[0m
[96m[10:55:53.737] REMOTE → LOCAL       0A 03 0C 00 00 00 00 00 00 00 00 00 05 00 00 C8 76[0m
[93m[10:55:53.792] LOCAL → REMOTE       0A 03 15 7C 00 06 01 67[0m
[96m[10:55:53.888] REMOTE → LOCAL       0A 03 0C 00 00 00 00 00 00 00 00 00 05 00 00 C8 76[0m
[93m[10:55:53.953] LOCAL → REMOTE       0A 03 17 0C 00 01 40 C6[0m
[96m[10:55:54.143] REMOTE → LOCAL       0A 03 02 00 00 1D 85[0m
[93m[10:55:54.146] LOCAL → REMOTE       0A 03 17 0C 00 01 40 C6[0m
[93m[10:55:54.210] LOCAL → REMOTE       0A 03 17 11 00 02 90 C1[0m
[96m[10:55:54.386] REMOTE → LOCAL       0A 03 02 00 00 1D 85[0m
[93m[10:55:54.448] LOCAL → REMOTE       0A 03 19 64 00 07 43 F0[0m
[96m[10:55:54.637] REMOTE → LOCAL       0A 03 04 00 4C 04 F2 02 61[0m
[93m[10:55:54.641] LOCAL → REMOTE       0A 03 19 64 00 07 43 F0[0m
[93m[10:55:54.703] LOCAL → REMOTE       0A 03 19 64 00 07 43 F0[0m
[96m[10:55:54.887] REMOTE → LOCAL       0A 03 0E 00 00 00 00 00 00 00 00 00 00 00 00 00 00 98 27[0m
[93m[10:55:54.896] LOCAL → REMOTE       0A 03 19 64 00 07 43 F0[0m
[93m[10:55:54.943] LOCAL → REMOTE       0A 03 19 64 00 07 43 F0[0m
[96m[10:55:55.137] REMOTE → LOCAL       0A 03 0E 00 00 00 00 00 00 00 00 00 00 00 00 00 00 98 27[0m
[93m[10:55:55.203] LOCAL → REMOTE       0A 03 15 7C 00 06 01 67[0m
